#  HZ   S   RI   R     50.0 
! Rohde & Schwarz ZVL3 2Ports - Version 3.31 - 1303.6509k03 SN: 101102
! Date: 2016-10-20 14:18:11
! Data & Calibration Information:
! Trc1:S11(TOSM) Trc2:S21(TOSM) Trc3:S12(TOSM) Trc4:S22(TOSM)
! 
! 
! 
 3.000000000000000E7     8.853085655591135E-1  -3.804031792154808E-1  -1.219100793048619E-2   5.993428156992264E-2  -1.148029658354464E-2   5.732832001489156E-2   8.892985585810533E-1  -3.710317752286060E-1  
 3.120000000000000E7     8.739286550635682E-1  -3.993892589806598E-1  -1.238298942348697E-2   5.766069634678183E-2  -1.267007911658119E-2   5.781485771494178E-2   8.728133739046454E-1  -4.040291047494747E-1  
 3.240000000000000E7     8.655578494606131E-1  -4.148810540972632E-1  -1.644653384352194E-2   6.064250634814269E-2  -1.593666770696040E-2   6.070321744536351E-2   8.595251301574639E-1  -4.278407755168902E-1  
 3.360000000000000E7     8.427002279446234E-1  -4.346946035567361E-1  -1.684661160374143E-2   6.458988046358870E-2  -1.709838064400826E-2   6.469539574403437E-2   8.508890708409294E-1  -4.346158278962198E-1  
 3.480000000000000E7     8.350200816672924E-1  -4.433883604620809E-1  -2.026146059419988E-2   6.771654262002981E-2  -2.054953543843458E-2   6.788040973895457E-2   8.341250963011689E-1  -4.505167125274411E-1  
 3.600000000000000E7     8.241426255353750E-1  -4.565351627375022E-1  -2.349932575657392E-2   7.466892326618412E-2  -2.398261393327992E-2   7.479286205004908E-2   8.286588650731859E-1  -4.564302034810797E-1  
 3.720000000000000E7     8.151575280563628E-1  -4.536921715329242E-1  -2.474328321723575E-2   8.528639722260756E-2  -2.366332992447206E-2   8.558345989539277E-2   7.999063200131067E-1  -4.797342091629356E-1  
 3.840000000000000E7     8.042474907866304E-1  -4.714389026886117E-1  -1.902962385116267E-2   9.579259469042278E-2  -1.885922520000514E-2   9.608797403396156E-2   7.985504401089364E-1  -4.770084129825229E-1  
 3.960000000000000E7     8.046795161081985E-1  -4.840481595270986E-1  -1.275428760741608E-2   9.917458660688298E-2  -1.087709718830755E-2   9.876907631255447E-2   7.871319142259768E-1  -4.998404574253643E-1  
 4.080000000000000E7     7.830860565621206E-1  -4.994651130250728E-1  -1.192138677033582E-2   1.003814143209164E-1  -1.264257387907555E-2   1.005250179006383E-1   7.818608321247542E-1  -5.062455185097090E-1  
 4.200000000000000E7     7.697033852961125E-1  -5.121625528599315E-1  -1.220633983204035E-2   1.096805917970760E-1  -1.243471824856612E-2   1.099983887161999E-1   7.621801180763307E-1  -5.202751320416360E-1  
 4.320000000000000E7     7.675716873967152E-1  -5.149778247597117E-1  -4.698052872016537E-3   1.192423881375554E-1  -6.520798982689219E-3   1.193104451509211E-1   7.663073308369933E-1  -5.221064796280820E-1  
 4.440000000000000E7     7.574483188604846E-1  -5.297568673933296E-1   1.984170375847716E-3   1.227144386608259E-1   2.466954374054538E-3   1.223664507942044E-1   7.502415286884554E-1  -5.370909282223820E-1  
 4.560000000000000E7     7.475815261794936E-1  -5.462014219192208E-1   7.494507616839286E-3   1.249647019139176E-1   6.570274356298874E-3   1.256931841032236E-1   7.449177812349075E-1  -5.502970794105038E-1  
 4.680000000000000E7     7.383455888005955E-1  -5.634300772557629E-1   1.118191525554753E-2   1.267429842550768E-1   1.192591947468914E-2   1.267074887656220E-1   7.360450696100903E-1  -5.629376385514514E-1  
 4.800000000000000E7     7.199200538336336E-1  -5.797251609414075E-1   1.331465825236456E-2   1.290189250052213E-1   1.416628147678142E-2   1.289985142684704E-1   7.132145816125716E-1  -5.837091929337525E-1  
 4.920000000000000E7     6.967020234709745E-1  -5.976225702463633E-1   1.669342209544612E-2   1.322156168273174E-1   1.776016215146339E-2   1.320048777939352E-1   6.859570942114880E-1  -6.010484185955615E-1  
 5.040000000000000E7     6.920218048800811E-1  -6.039351438691774E-1   1.795132884499506E-2   1.379080297786813E-1   1.817286211120847E-2   1.375060816696357E-1   6.868208956972771E-1  -6.056632123841191E-1  
 5.160000000000000E7     6.728276693269238E-1  -6.172433903480903E-1   2.383627995388295E-2   1.429175929011018E-1   2.312381863283244E-2   1.419790260493483E-1   6.588963012496338E-1  -6.219660696689755E-1  
 5.280000000000000E7     6.536012941790463E-1  -6.251868473180379E-1   2.706396369013993E-2   1.462075785838855E-1   2.747331325302209E-2   1.470625572492953E-1   6.468135544994687E-1  -6.370546893233750E-1  
 5.400000000000000E7     6.402446217026403E-1  -6.386630076982195E-1   3.176253967767706E-2   1.487239407969303E-1   3.280091690142575E-2   1.486241501479440E-1   6.203256858060894E-1  -6.508952678715201E-1  
 5.520000000000000E7     6.172550271448244E-1  -6.585026442512492E-1   3.378101344060767E-2   1.562518833563365E-1   3.381216217940351E-2   1.563128528071244E-1   6.063244254735979E-1  -6.579987315325647E-1  
 5.640000000000000E7     6.066574229760119E-1  -6.677541381762100E-1   3.988637389746987E-2   1.602941232264466E-1   4.043454440436980E-2   1.601986698563602E-1   5.928524886339792E-1  -6.641684389507853E-1  
 5.760000000000000E7     5.855287058378610E-1  -6.738408351608604E-1   4.257276777218618E-2   1.656975583704795E-1   4.394271424944357E-2   1.650486758037133E-1   5.684244739480598E-1  -6.701175639851568E-1  
 5.880000000000000E7     5.600066752858128E-1  -6.899130686721441E-1   5.009395092184736E-2   1.721884924998125E-1   4.942559548540580E-2   1.725597053009692E-1   5.462773904292693E-1  -6.871916185618009E-1  
 6.000000000000000E7     5.465423421513455E-1  -6.906854158192206E-1   5.733642625072161E-2   1.775240494452219E-1   5.737894093811256E-2   1.776104981591586E-1   5.315256420934637E-1  -6.820460507668104E-1  
 6.120000000000000E7     5.164259008130172E-1  -7.069920971291898E-1   6.547143404010797E-2   1.830900197707832E-1   6.535194433713848E-2   1.839791063920274E-1   5.058200292581925E-1  -7.024172072857254E-1  
 6.240000000000000E7     5.031750120437325E-1  -7.157665807000180E-1   7.424942961871511E-2   1.884173717225774E-1   7.353850354216902E-2   1.887328117554495E-1   4.979423411332032E-1  -7.090540781333609E-1  
 6.360000000000000E7     4.855934481475843E-1  -7.179140517634767E-1   8.073050902937769E-2   1.911736838167047E-1   8.142973288003658E-2   1.920190473800356E-1   4.682808485128144E-1  -7.169213122802098E-1  
 6.480000000000000E7     4.485485149803209E-1  -7.294926910404911E-1   9.153901224182091E-2   1.964678709507326E-1   8.843329919633111E-2   1.983789308828096E-1   4.471360272190642E-1  -7.238459286265128E-1  
 6.600000000000000E7     4.230467010296305E-1  -7.337492693051710E-1   1.030929533859637E-1   2.013079454711444E-1   1.019170944441517E-1   2.045311887583247E-1   4.236110672367737E-1  -7.357255889112682E-1  
 6.720000000000000E7     4.171017237612646E-1  -7.367127944926871E-1   1.137252296685063E-1   2.084078563072089E-1   1.132739053301985E-1   2.091757770153235E-1   3.947328150274705E-1  -7.404516763809348E-1  
 6.840000000000000E7     3.947743217036696E-1  -7.466330318612339E-1   1.268351099041876E-1   2.100650576801169E-1   1.285347824064936E-1   2.094858324078079E-1   3.680688871965577E-1  -7.526967185394060E-1  
 6.960000000000000E7     3.603317004837428E-1  -7.562563782575252E-1   1.422493785306082E-1   2.061053767995334E-1   1.403281685934615E-1   2.080222111188390E-1   3.421236720240138E-1  -7.611319654112081E-1  
 7.080000000000000E7     3.330107761340628E-1  -7.679883185725955E-1   1.500544416798028E-1   2.090461677323515E-1   1.506091749907103E-1   2.072328188246858E-1   3.124883962155553E-1  -7.611168306515054E-1  
 7.200000000000000E7     3.012470696133106E-1  -7.747213324604354E-1   1.620469266641462E-1   2.072742828576323E-1   1.608781546130383E-1   2.076556831110344E-1   2.720647339484021E-1  -7.694352158654529E-1  
 7.320000000000000E7     2.711194899987071E-1  -7.772246211060716E-1   1.736014354009761E-1   2.087442583427299E-1   1.732885818035769E-1   2.059545214999218E-1   2.370925035952333E-1  -7.678012979406664E-1  
 7.440000000000000E7     2.309128190845525E-1  -7.761793047710939E-1   1.836662361417880E-1   2.100555259374212E-1   1.853190052952343E-1   2.088809880700920E-1   2.036087349843186E-1  -7.678177689510034E-1  
 7.560000000000000E7     1.902553891489219E-1  -7.721993856718907E-1   1.985303187183466E-1   2.075149870125947E-1   1.956689927299672E-1   2.111108211590706E-1   1.655189651352299E-1  -7.657661333420534E-1  
 7.680000000000000E7     1.585295078141616E-1  -7.612580632315387E-1   2.117470163950905E-1   2.106272784073582E-1   2.121668557257398E-1   2.121750425045209E-1   1.363574430858303E-1  -7.588813414138191E-1  
 7.800000000000000E7     1.225188546441266E-1  -7.525517594502578E-1   2.307166729413193E-1   2.143088574223661E-1   2.319362185504544E-1   2.136554718478337E-1   7.674463035213663E-2  -7.477915945010663E-1  
 7.920000000000000E7     8.901560040800535E-2  -7.429540320846756E-1   2.574363592003732E-1   2.080548379320896E-1   2.524669637476444E-1   2.103365175405933E-1   4.372237961278332E-2  -7.341571271695434E-1  
 8.040000000000000E7     5.760457965499224E-2  -7.283460066170843E-1   2.785983390146810E-1   1.999589464447358E-1   2.784862825947739E-1   2.017946203000711E-1   3.613598264420010E-3  -7.227080500648700E-1  
 8.160000000000000E7     2.799931727019446E-2  -7.239096672343994E-1   3.014145473067709E-1   1.888068619287293E-1   2.996951289151838E-1   1.903743969794141E-1  -3.878441984889818E-2  -6.979076340430804E-1  
 8.280000000000000E7    -5.571856729490868E-3  -7.120862823615255E-1   3.203241312799743E-1   1.738209807570923E-1   3.208797598028049E-1   1.736890173891814E-1  -9.144427055680729E-2  -6.789482590230184E-1  
 8.400000000000000E7    -5.510744737565908E-2  -6.983769190625048E-1   3.402791919590528E-1   1.564378844708899E-1   3.387908954616856E-1   1.565450655801452E-1  -1.277656331531090E-1  -6.394220301175694E-1  
 8.520000000000000E7    -8.608601210785269E-2  -6.783175438554737E-1   3.573458541267072E-1   1.374074245235993E-1   3.577248928380368E-1   1.400497922675890E-1  -1.800234654940790E-1  -5.933329602649080E-1  
 8.640000000000000E7    -1.335291496403259E-1  -6.547286412582856E-1   3.764278084683069E-1   1.141533756391958E-1   3.783056739944393E-1   1.147211347106591E-1  -2.166248263957480E-1  -5.488508633784159E-1  
 8.760000000000000E7    -1.825258483081888E-1  -6.168607504204577E-1   3.918952412827600E-1   8.960570016985074E-2   3.919403701376307E-1   9.628495572845136E-2  -2.276428861715098E-1  -4.906739870593967E-1  
 8.880000000000000E7    -2.257961674620412E-1  -5.811849659202368E-1   4.094113262167136E-1   6.354428455301323E-2   4.107649791285654E-1   6.563649295040894E-2  -2.506533772529911E-1  -4.283657702488596E-1  
 9.000000000000000E7    -2.591842295827071E-1  -5.375975799802937E-1   4.256322466047585E-1   3.175498760226019E-2   4.258212678147281E-1   3.078729135504007E-2  -2.524755881319272E-1  -3.835905806429714E-1  
 9.120000000000000E7    -2.933674504960534E-1  -4.799753015854761E-1   4.372585874575342E-1  -4.523426292420021E-3   4.374691458811072E-1  -3.957400516370862E-3  -2.551277703349436E-1  -3.294758213346693E-1  
 9.240000000000000E7    -3.290656313979885E-1  -4.202378102171443E-1   4.451484516297362E-1  -5.315467486048551E-2   4.452604771959904E-1  -5.266182750282098E-2  -2.614246415818983E-1  -2.854284619576894E-1  
 9.360000000000000E7    -3.440643337222324E-1  -3.563650489412056E-1   4.414960718192303E-1  -1.004391642196193E-1   4.419264979393865E-1  -1.028074185107075E-1  -2.600943551815281E-1  -2.437503413683275E-1  
 9.480000000000000E7    -3.565462535767181E-1  -2.805376915559774E-1   4.307295464985804E-1  -1.513502993013455E-1   4.315478854052660E-1  -1.523136347554030E-1  -2.618610225260480E-1  -1.929394937224892E-1  
 9.600000000000000E7    -3.597561596531205E-1  -2.083401188712525E-1   4.068696049856579E-1  -2.057416075315815E-1   4.071926420942502E-1  -2.037687096642267E-1  -2.616374121731066E-1  -1.414716086574387E-1  
 9.720000000000000E7    -3.461315792367619E-1  -1.346240967517316E-1   3.721096957496046E-1  -2.540063720135455E-1   3.731916678878069E-1  -2.522220370379605E-1  -2.517202794746372E-1  -8.759698577803937E-2  
 9.840000000000000E7    -3.260743815515892E-1  -6.494813071691237E-2   3.273286565559344E-1  -2.959416953548166E-1   3.281748570834301E-1  -2.948307888243107E-1  -2.357262065589400E-1  -2.936475386024541E-2  
 9.960000000000000E7    -2.972550921201523E-1  -2.785902750728300E-3   2.753366100359268E-1  -3.263334250434033E-1   2.731122440023819E-1  -3.292183527001463E-1  -2.122480169299446E-1   2.429896420115639E-2  
 1.008000000000000E8    -2.521525976109359E-1   5.954501963311746E-2   2.152977804017296E-1  -3.497253036756350E-1   2.146125843923535E-1  -3.497557251623757E-1  -1.799551860950976E-1   6.903860060210117E-2  
 1.020000000000000E8    -2.071154066048531E-1   1.088375030774841E-1   1.507554165948409E-1  -3.597577580977772E-1   1.502345927079472E-1  -3.598936309030923E-1  -1.376960722471874E-1   1.185280518962695E-1  
 1.032000000000000E8    -1.535564788896745E-1   1.487928035984947E-1   8.454845752889346E-2  -3.564768217765588E-1   8.608653192471728E-2  -3.562723950590203E-1  -9.889377685810644E-2   1.553472393130251E-1  
 1.044000000000000E8    -1.011407748921827E-1   1.776582393582487E-1   2.191303350339316E-2  -3.403062023906813E-1   2.387954185881577E-2  -3.409368898366824E-1  -5.308443871326898E-2   1.888698829677658E-1  
 1.056000000000000E8    -4.815588999508080E-2   1.978486801945625E-1  -3.090521118535182E-2  -3.145761634519640E-1  -3.056595451541103E-2  -3.134859309476138E-1  -3.458216075413556E-3   2.122044886368786E-1  
 1.068000000000000E8     6.197583738195858E-3   2.092665139161762E-1  -8.074293277606288E-2  -2.783380936575787E-1  -8.061207915053070E-2  -2.785228902058652E-1   4.351685392757674E-2   2.318860367406535E-1  
 1.080000000000000E8     4.860957380931695E-2   2.121433110502398E-1  -1.212107382978635E-1  -2.371773343318392E-1  -1.217983944929110E-1  -2.375011745492502E-1   9.717484548171446E-2   2.415547181017647E-1  
 1.092000000000000E8     8.984249575634290E-2   2.159422662819668E-1  -1.538751927467423E-1  -1.920563664308939E-1  -1.533788095374925E-1  -1.922630311896216E-1   1.474780191024492E-1   2.485792891823641E-1  
 1.104000000000000E8     1.274323280241165E-1   2.132513250684214E-1  -1.787477217079600E-1  -1.442051502520244E-1  -1.790850629501787E-1  -1.433502879471039E-1   1.905510938034545E-1   2.453593993298959E-1  
 1.116000000000000E8     1.599962269862261E-1   2.163396282898563E-1  -1.963898768595262E-1  -9.341676695757165E-2  -1.965185972927766E-1  -9.299881429954256E-2   2.396388589971694E-1   2.391008643223999E-1  
 1.128000000000000E8     1.907892608286090E-1   2.143693265248949E-1  -2.056028810046733E-1  -4.199099846904617E-2  -2.067178588195120E-1  -4.039637534906532E-2   2.790680961698877E-1   2.323345852352254E-1  
 1.140000000000000E8     2.256623254561983E-1   2.144778255272515E-1  -2.076405224838533E-1   1.323636009573262E-2  -2.079189882117419E-1   1.129903173773107E-2   3.135371694536388E-1   2.201133301102162E-1  
 1.152000000000000E8     2.545326375790781E-1   2.168596984919745E-1  -2.010185755962727E-1   6.415767259696467E-2  -2.013958879798903E-1   6.365803115637075E-2   3.488989541304629E-1   2.092017656981707E-1  
 1.164000000000000E8     2.932636772098834E-1   2.150006967381692E-1  -1.867916632685425E-1   1.120918142605857E-1  -1.868918935285344E-1   1.115938628043892E-1   3.798571383106404E-1   1.984151158655791E-1  
 1.176000000000000E8     3.257858958024500E-1   2.130076581695994E-1  -1.660461741262980E-1   1.563621910979211E-1  -1.657572976992288E-1   1.563358151986919E-1   4.131421829073561E-1   1.797165711185816E-1  
 1.188000000000000E8     3.650078140749426E-1   2.039151116693696E-1  -1.363749677213824E-1   1.982117760180562E-1  -1.373981726952745E-1   1.965095164086328E-1   4.434775380765011E-1   1.631524015567822E-1  
 1.200000000000000E8     3.984814150251166E-1   1.938104353887012E-1  -1.055761676841550E-1   2.307910952906363E-1  -1.032499342780041E-1   2.316711172329595E-1   4.751027052887655E-1   1.377332131093793E-1  
 1.212000000000000E8     4.381753866935982E-1   1.781574237603405E-1  -6.739549729267731E-2   2.576545377613072E-1  -6.854326670431207E-2   2.570526250069057E-1   5.000250275440344E-1   1.166330738818970E-1  
 1.224000000000000E8     4.691987905971321E-1   1.567557643059649E-1  -3.329030760941400E-2   2.778953312863517E-1  -3.055284328401992E-2   2.777839416653400E-1   5.230517123648502E-1   9.052190952492578E-2  
 1.236000000000000E8     5.033379377506879E-1   1.300475713036115E-1   6.323499601631854E-3   2.924207194430623E-1   4.963379011070726E-3   2.915358645948049E-1   5.431717223599694E-1   6.177026122062006E-2  
 1.248000000000000E8     5.276835756796091E-1   1.004806547215575E-1   4.194011880778532E-2   3.004207002087739E-1   4.025953713009244E-2   3.001018907573694E-1   5.604942488857512E-1   3.405526793198470E-2  
 1.260000000000000E8     5.501889364517854E-1   7.521918128085872E-2   7.485421490695898E-2   3.044938209296625E-1   7.395460265689732E-2   3.054513024646430E-1   5.695914892622085E-1   6.279929471399303E-3  
 1.272000000000000E8     5.694550614867214E-1   3.866365613473342E-2   1.121322542275262E-1   3.042687505117580E-1   1.101082619472912E-1   3.055338304736158E-1   5.743528495247534E-1  -2.780924220868703E-2  
 1.284000000000000E8     5.828145723839338E-1   8.205847081223086E-3   1.408496051513635E-1   3.039663579267946E-1   1.413255894447275E-1   3.028762885749965E-1   5.803687709489742E-1  -5.406839783997836E-2  
 1.296000000000000E8     5.895820960893510E-1  -2.718119129488174E-2   1.668317223468573E-1   3.003643960189264E-1   1.701260438282412E-1   2.996163670066604E-1   5.808934283023981E-1  -7.950603952301681E-2  
 1.308000000000000E8     5.966529695563322E-1  -6.204423627875884E-2   1.958333382209723E-1   2.935547179053341E-1   1.967722033133985E-1   2.926250490988397E-1   5.797169818227741E-1  -9.979195168755438E-2  
 1.320000000000000E8     5.992070865031546E-1  -8.349540725418778E-2   2.232503234263429E-1   2.853603681023806E-1   2.221645020051847E-1   2.864023620271239E-1   5.773599115507627E-1  -1.319770956534006E-1  
 1.332000000000000E8     5.950530618004220E-1  -1.172732670522451E-1   2.492331659702053E-1   2.769771870174893E-1   2.492920570122785E-1   2.761217940184231E-1   5.760184824432970E-1  -1.369980476371085E-1  
 1.344000000000000E8     5.922620959735913E-1  -1.464566066269579E-1   2.719612432432905E-1   2.674492267884016E-1   2.731538981165330E-1   2.655914455334373E-1   5.676431670889613E-1  -1.657949598255029E-1  
 1.356000000000000E8     5.876077695987476E-1  -1.705832972512019E-1   2.942643813938246E-1   2.564282635030439E-1   2.927815009844924E-1   2.580780804251248E-1   5.665989879021678E-1  -1.906195127402760E-1  
 1.368000000000000E8     5.774452889564619E-1  -1.930310586581767E-1   3.167162605210688E-1   2.437599443620925E-1   3.136934820068497E-1   2.486684774999457E-1   5.617246973113954E-1  -2.010887139420323E-1  
 1.380000000000000E8     5.633598708269507E-1  -2.197722837226387E-1   3.389759642391091E-1   2.286609525120197E-1   3.412175380010575E-1   2.225795835940274E-1   5.457225895962161E-1  -2.287991558622476E-1  
 1.392000000000000E8     5.538718837097454E-1  -2.346686820862292E-1   3.593618432320015E-1   2.112078992777184E-1   3.579740009570224E-1   2.133304199614599E-1   5.410433864691380E-1  -2.430221540990296E-1  
 1.404000000000000E8     5.436356086420396E-1  -2.513697907562567E-1   3.778531423994173E-1   1.966760981087667E-1   3.783715667348946E-1   1.959457238905008E-1   5.366416274843429E-1  -2.532129961378875E-1  
 1.416000000000000E8     5.317851582128235E-1  -2.670977019284088E-1   3.954639312502397E-1   1.800368622347551E-1   3.964777003562082E-1   1.778225189806313E-1   5.184738889276297E-1  -2.702579516067099E-1  
