# MHZ S MA R 100		
50		0.99797289	-46.790765
50.2002		0.99933984	-46.957621
50.4004		1.000704	-47.124658
50.600601	1.0000862	-47.446701
50.800801	0.99946591	-47.768836
51.001001	0.9988431	-48.091063
51.201201	0.9982178	-48.413382
51.401401	0.99759		-48.735795
51.601602	0.99696032	-49.058156
51.801802	0.99640603	-49.362739
52.002002	0.99585341	-49.667339
52.202202	0.99530245	-49.971956
52.402402	0.99475315	-50.276591
52.602603	0.99420551	-50.581242
52.802803	0.99366828	-50.883418
53.003003	0.99374682	-51.010146
53.203203	0.99382252	-51.136978
53.403403	0.99389535	-51.263915
53.603604	0.99396533	-51.390956
53.803804	0.99403246	-51.5181
54.004004	0.99411106	-51.647925
54.204204	0.99489331	-51.903858
54.404404	0.9956808	-52.159412
54.604605	0.99647352	-52.414587
54.804805	0.99727142	-52.669382
55.005005	0.99807446	-52.923795
55.205205	0.99884837	-53.177937
55.405405	0.99834041	-53.436075
55.605606	0.99783005	-53.694324
55.805806	0.99731728	-53.952684
56.006006	0.99680211	-54.211155
56.206206	0.99628453	-54.469736
56.406406	0.99576878	-54.729365
56.606607	0.9953811	-55.017326
56.806807	0.99499563	-55.305252
57.007007	0.99461236	-55.593143
57.207207	0.99423129	-55.880998
57.407407	0.99385241	-56.168818
57.607608	0.99350354	-56.457645
57.807808	0.99386144	-56.77283
58.008008	0.99422238	-57.087849
58.208208	0.99458637	-57.402701
58.408408	0.99495339	-57.717386
58.608609	0.99532342	-58.031903
58.808809	0.99561917	-58.341978
59.009009	0.99423611	-58.559323
59.209209	0.9928506	-58.777002
59.409409	0.99146262	-58.995016
59.60961	0.99007221	-59.213367
59.80981	0.98867936	-59.432056
60.01001	0.98739676	-59.658552
60.21021	0.98825373	-60.027018
60.41041	0.98911055	-60.395323
60.610611	0.9899672	-60.763467
60.810811	0.99082368	-61.131449
61.011011	0.99167997	-61.49927
61.211211	0.99251306	-61.858592
61.411411	0.99295482	-62.077287
61.611612	0.99339017	-62.296047
61.811812	0.99381913	-62.514873
62.012012	0.99424168	-62.733763
62.212212	0.99465782	-62.952719
62.412412	0.99498348	-63.175373
62.612613	0.99403327	-63.453173
62.812813	0.99308077	-63.731212
63.013013	0.99212598	-64.009488
63.213213	0.99116891	-64.288004
63.413413	0.99020956	-64.56676
63.613614	0.98931126	-64.854211
63.813814	0.9892791	-65.257583
64.014014	0.98924591	-65.660838
64.214214	0.98921168	-66.063973
64.414414	0.98917641	-66.466991
64.614615	0.98914008	-66.869889
64.814815	0.98908574	-67.266764
65.015015	0.9888164	-67.589831
65.215215	0.98854294	-67.913163
65.415415	0.98826537	-68.23676
65.615616	0.9879837	-68.560623
65.815816	0.98769793	-68.884752
66.016016	0.98744031	-69.212021
66.216216	0.98755173	-69.572432
66.416416	0.98766362	-69.932802
66.616617	0.98777597	-70.29313
66.816817	0.98788878	-70.653416
67.017017	0.98800206	-71.01366
67.217217	0.98813158	-71.371984
67.417417	0.98842647	-71.710371
67.617618	0.98871669	-72.048847
67.817818	0.98900223	-72.387411
68.018018	0.98928308	-72.726062
68.218218	0.98955923	-73.0648
68.418418	0.98969314	-73.407604
68.618619	0.98846206	-73.7899
68.818819	0.98722115	-74.172497
69.019019	0.98597043	-74.555398
69.219219	0.98470991	-74.938602
69.419419	0.98343962	-75.32211
69.61962	0.98230667	-75.708002
69.81982	0.98252461	-76.113149
70.02002	0.98274483	-76.518256
70.22022	0.98296733	-76.923322
70.42042	0.98319209	-77.328346
70.620621	0.98341911	-77.733329
70.820821	0.98357143	-78.138878
71.021021	0.98305932	-78.549876
71.221221	0.98254306	-78.961263
71.421421	0.98202268	-79.373041
71.621622	0.98149824	-79.785212
71.821822	0.98096979	-80.197776
72.022022	0.98039905	-80.604447
72.222222	0.97951335	-80.960728
72.422422	0.97862213	-81.317576
72.622623	0.97772546	-81.674993
72.822823	0.97682337	-82.03298
73.023023	0.97591592	-82.391541
73.223223	0.97506979	-82.762677
73.423423	0.97473169	-83.225477
73.623624	0.97439828	-83.688218
73.823824	0.97406955	-84.150901
74.024024	0.97374549	-84.613522
74.224224	0.97342609	-85.076082
74.424424	0.97302864	-85.544736
74.624625	0.97203884	-86.057821
74.824825	0.97105037	-86.57116
75.025025	0.97006323	-87.084753
75.225225	0.96907745	-87.5986
75.425425	0.96809304	-88.112701
75.625626	0.9670785	-88.618259
75.825826	0.9658499	-89.064223
76.026026	0.96462127	-89.510611
76.226226	0.96339263	-89.957425
76.426426	0.96216402	-90.404667
76.626627	0.96093544	-90.852336
76.826827	0.95979315	-91.311339
77.027027	0.95921194	-91.840917
77.227227	0.95863742	-92.370355
77.427427	0.95806958	-92.899649
77.627628	0.95750841	-93.428796
77.827828	0.95695388	-93.957793
78.028028	0.95628236	-94.487205
78.228228	0.95485266	-95.020488
78.428428	0.95342024	-95.554562
78.628629	0.95198518	-96.089429
78.828829	0.95054756	-96.625093
79.029029	0.94910745	-97.161557
79.229229	0.94764911	-97.713046
79.429429	0.94609802	-98.348564
79.62963	0.94454833	-98.98496
79.82983	0.94300014	-99.62224
80.03003	0.9414535	-100.2604
80.23023	0.93990851	-100.89946
80.43043	0.93836818	-101.53025
80.630631	0.93684772	-102.11074
80.830831	0.93533192	-102.692
81.031031	0.93382084	-103.27403
81.231231	0.93231456	-103.85683
81.431431	0.93081313	-104.44041
81.631632	0.92927793	-105.03777
81.831832	0.9275393	-105.70532
82.032032	0.92580194	-106.37381
82.232232	0.92406591	-107.04324
82.432432	0.9223313	-107.7136
82.632633	0.92059817	-108.38491
82.832833	0.91879019	-109.05363
83.033033	0.91659425	-109.7055
83.233233	0.91439994	-110.35873
83.433433	0.91220745	-111.01334
83.633634	0.91001694	-111.66933
83.833834	0.90782858	-112.32672
84.034034	0.90546696	-113.00241
84.234234	0.90225183	-113.76235
84.434434	0.89904156	-114.52425
84.634635	0.8958364	-115.28815
84.834835	0.89263662	-116.05405
85.035035	0.88944245	-116.82197
85.235235	0.88636025	-117.59158
85.435435	0.88377846	-118.36138
85.635636	0.88119887	-119.13284
85.835836	0.87862163	-119.90598
86.036036	0.8760469	-120.68081
86.236236	0.87347483	-121.45734
86.436436	0.87053985	-122.23684
86.636637	0.86596647	-123.02446
86.836837	0.86140061	-123.81502
87.037037	0.85684269	-124.60856
87.237237	0.8522931	-125.40513
87.437437	0.84775227	-126.20477
87.637638	0.843378	-127.03842
87.837838	0.83969175	-128.00836
88.038038	0.83601319	-128.98087
88.238238	0.83234274	-129.95598
88.438438	0.8286808	-130.93371
88.638639	0.82502779	-131.91409
88.838839	0.82105687	-132.87916
89.039039	0.81574004	-133.77317
89.239239	0.81044005	-134.67151
89.439439	0.80515745	-135.57426
89.63964	0.79989277	-136.48149
89.83984	0.79464657	-137.39328
90.04004	0.78929537	-138.31006
90.24024	0.7834709	-139.23328
90.44044	0.77767226	-140.16175
90.640641	0.77190015	-141.09557
90.840841	0.76615527	-142.03483
91.041041	0.76043833	-142.97964
91.241241	0.75483539	-143.977
91.441441	0.74958746	-145.16042
91.641642	0.74436429	-146.34894
91.841842	0.73916657	-147.54261
92.042042	0.73399497	-148.74154
92.242242	0.72885021	-149.9458
92.442442	0.72322926	-151.13107
92.642643	0.71577154	-152.23341
92.842843	0.70835554	-153.34519
93.043043	0.70098276	-154.46664
93.243243	0.69365478	-155.59802
93.443443	0.68637321	-156.73957
93.643644	0.67913003	-157.90175
93.843844	0.67190207	-159.11108
94.044044	0.66472598	-160.33105
94.244244	0.65760343	-161.56194
94.444444	0.65053616	-162.804
94.644645	0.64352596	-164.05753
94.844845	0.63620291	-165.30974
95.045045	0.62766125	-166.53094
95.245245	0.61919703	-167.76823
95.445445	0.61081328	-169.0221
95.645646	0.60251313	-170.29304
95.845846	0.59429985	-171.58157
96.046046	0.58614964	-172.89931
96.246246	0.57799561	-174.27174
96.446446	0.56992777	-175.66157
96.646647	0.56194919	-177.06933
96.846847	0.55406308	-178.49555
97.047047	0.54627277	-179.94077
97.247247	0.53841522	178.61456
97.447447	0.53012528	177.21399
97.647648	0.5219482	175.79118
97.847848	0.5138882	174.34546
98.048048	0.50594965	172.87613
98.248248	0.49813711	171.38251
98.448448	0.49027264	169.87406
98.648649	0.4819713	168.37139
98.848849	0.47381014	166.8417
99.049049	0.46579441	165.28419
99.249249	0.45792957	163.69804
99.449449	0.45022125	162.08246
99.64965	0.44235386	160.47187
99.84985	0.43370469	158.93302
100.05005	0.42527113	157.35593
100.25025	0.41706182	155.73965
100.45045	0.40908563	154.08336
100.65065	0.40135162	152.38631
100.85085	0.39370053	150.63781
101.05105	0.38583616	148.81425
101.25125	0.37827671	146.94287
101.45145	0.37103377	145.02362
101.65165	0.36411877	143.05673
101.85185	0.35754297	141.04281
102.05205	0.35099338	139.04953
102.25225	0.34388277	137.19853
102.45245	0.33714402	135.29977
102.65265	0.3307875	133.355
102.85285	0.32482269	131.36654
103.05305	0.31925795	129.33724
103.25325	0.31347543	127.29797
103.45345	0.30653083	125.28159
103.65365	0.300246	123.20953
103.85385	0.29462837	121.09287
104.05405	0.28967896	118.94415
104.25425	0.28539198	116.77711
104.45445	0.28039788	114.51766
104.65465	0.27311063	111.94685
104.85485	0.26753841	109.31975
105.05506	0.26357687	106.72202
105.25526	0.26103962	104.23482
105.45546	0.25967493	101.92698
105.65566	0.25761042	99.818983
105.85586	0.2522715	97.634563
106.05606	0.24792481	95.343993
106.25626	0.24466149	92.999685
106.45646	0.2425138	90.664021
106.65666	0.24144884	88.403778
106.85686	0.24017221	86.171586
107.05706	0.23667102	83.688599
107.25726	0.23390842	81.176844
107.45746	0.23188499	78.663077
107.65766	0.23058724	76.175095
107.85786	0.22998792	73.740502
108.05806	0.22962454	71.338583
108.25826	0.22875639	68.88097
108.45846	0.22834301	66.474146
108.65866	0.22835604	64.131104
108.85886	0.22876345	61.863519
109.05906	0.22953033	59.681542
109.25926	0.23017651	57.564798
109.45946	0.22999858	55.443011
109.65966	0.22999995	53.368847
109.85986	0.23016457	51.345574
110.06006	0.23047617	49.376005
110.26026	0.2309184	47.462506
110.46046	0.23157851	45.523637
110.66066	0.23260529	43.453119
110.86086	0.23375814	41.445857
111.06106	0.23502017	39.502887
111.26126	0.23637493	37.624843
111.46146	0.23780656	35.812003
111.66166	0.23934923	34.034662
111.86186	0.24104134	32.256606
112.06206	0.24275352	30.544408
112.26226	0.24447277	28.89719
112.46246	0.24618687	27.313967
112.66266	0.24788444	25.793679
112.86286	0.24937714	24.280636
113.06306	0.2504402	22.701286
113.26326	0.25145292	21.170114
113.46346	0.25240978	19.686534
113.66366	0.25330575	18.249993
113.86386	0.25413632	16.85998
114.06406	0.25537897	15.473091
114.26426	0.25755009	14.053237
114.46446	0.25961155	12.697005
114.66466	0.26156026	11.403125
114.86486	0.26339407	10.170485
115.06507	0.26511178	8.9981234
115.26527	0.26691248	7.8397457
115.46547	0.26896422	6.6511504
115.66567	0.27083602	5.5284076
115.86587	0.27253414	4.471193
116.06607	0.27406613	3.4793307
116.26627	0.27544084	2.5527675
116.46647	0.27682859	1.5523609
116.66667	0.27833888	0.33683118
116.86687	0.2796339	-0.81314215
117.06707	0.280733	-1.896485
117.26727	0.28165729	-2.9122111
117.46747	0.28242949	-3.8594706
117.66767	0.28370173	-4.8157029
117.86787	0.2860126	-5.8694847
118.06807	0.28810678	-6.8735458
118.26827	0.29000161	-7.826455
118.46847	0.29171596	-8.726974
118.66867	0.29327015	-9.5740863
118.86887	0.29472341	-10.364216
119.06907	0.29607519	-11.119733
119.26927	0.29723193	-11.85637
119.46947	0.29819606	-12.571609
119.66967	0.29897128	-13.262906
119.86987	0.29956263	-13.927696
120.07007	0.30021469	-14.635001
120.27027	0.30117182	-15.460948
120.47047	0.30200894	-16.27951
120.67067	0.30272609	-17.089606
120.87087	0.30332366	-17.890139
121.07107	0.30380239	-18.680005
121.27127	0.30449645	-19.454826
121.47147	0.30571955	-20.217395
121.67167	0.30688969	-20.97633
121.87187	0.30800684	-21.731443
122.07207	0.30907101	-22.482543
122.27227	0.31008225	-23.229441
122.47247	0.31101621	-23.924553
122.67267	0.31187596	-24.533718
122.87287	0.31271465	-25.141419
123.07307	0.31353225	-25.747635
123.27327	0.31432873	-26.352347
123.47347	0.31510406	-26.955532
123.67367	0.31568145	-27.562524
123.87387	0.3159461	-28.177987
124.07407	0.31620716	-28.793117
124.27427	0.3164646	-29.407919
124.47447	0.31671841	-30.022396
124.67467	0.31696858	-30.636554
124.87487	0.31721034	-31.201071
125.07508	0.31744956	-31.682575
125.27528	0.31769832	-32.163547
125.47548	0.31795659	-32.643968
125.67568	0.31822436	-33.123819
125.87588	0.31850158	-33.603083
126.07608	0.31865116	-34.152209
126.27628	0.31859303	-34.815753
126.47648	0.31855379	-35.478729
126.67668	0.31853335	-36.141078
126.87688	0.31853165	-36.802744
127.07708	0.31854862	-37.463669
127.27728	0.31858439	-38.075882
127.47748	0.31864183	-38.611001
127.67768	0.31872174	-39.145169
127.87788	0.31882401	-39.678316
128.07808	0.31894852	-40.210369
128.27828	0.31909516	-40.741259
128.47848	0.3191236	-41.235576
128.67868	0.31895304	-41.674904
128.87888	0.31879948	-42.114497
129.07908	0.31866293	-42.554306
129.27928	0.31854341	-42.994285
129.47948	0.31844092	-43.434387
129.67968	0.31804525	-43.869238
129.87988	0.31719463	-44.297952
130.08008	0.31635726	-44.729383
130.28028	0.31553334	-45.163521
130.48048	0.31472308	-45.600355
130.68068	0.31392667	-46.039871
130.88088	0.31338204	-46.495027
131.08108	0.31319756	-46.971131
131.28128	0.31302063	-47.44868
131.48148	0.31285137	-47.927659
131.68168	0.31268994	-48.408055
131.88188	0.31253648	-48.889853
132.08208	0.31200621	-49.320951
132.28228	0.3109093	-49.680936
132.48248	0.30979117	-50.045865
132.68268	0.30865217	-50.415826
132.88288	0.30749265	-50.790915
133.08308	0.30631297	-51.171225
133.28328	0.30535183	-51.615038
133.48348	0.30471351	-52.144609
133.68368	0.30406688	-52.677765
133.88388	0.30341224	-53.214549
134.08408	0.30274987	-53.755008
134.28428	0.30208008	-54.299186
134.48448	0.30172459	-54.755967
134.68468	0.3017904	-55.089493
134.88488	0.30183243	-55.423779
135.08509	0.30185068	-55.758871
135.28529	0.30184515	-56.094819
135.48549	0.30181585	-56.431668
135.68569	0.30103301	-56.758576
135.88589	0.29923553	-57.076007
136.08609	0.29739283	-57.400305
136.28629	0.29550533	-57.731655
136.48649	0.29357346	-58.070252
136.68669	0.29159768	-58.416302
136.88689	0.28991978	-58.856907
137.08709	0.28865172	-59.416349
137.28729	0.28735169	-59.98053
137.48749	0.28601997	-60.549576
137.68769	0.2846568	-61.123621
137.88789	0.28326247	-61.702803
138.08809	0.28240104	-62.164149
138.28829	0.28221275	-62.470044
138.48849	0.28197462	-62.775603
138.68869	0.28168655	-63.080845
138.88889	0.28134842	-63.385791
139.08909	0.28096013	-63.690461
139.28929	0.27973368	-63.959887
139.48949	0.27746507	-64.188222
139.68969	0.275128	-64.420041
139.88989	0.27272258	-64.655495
140.09009	0.27024891	-64.894743
140.29029	0.26770709	-65.137956
140.49049	0.26574605	-65.524756
140.69069	0.26453362	-66.08463
140.89089	0.26329474	-66.648563
141.09109	0.26202958	-67.21671
141.29129	0.26073836	-67.78923
141.49149	0.2594213	-68.366288
141.69169	0.25821617	-68.801716
141.89189	0.25713364	-69.065006
142.09209	0.25600542	-69.327947
142.29229	0.25483145	-69.59054
142.49249	0.25361168	-69.852789
142.69269	0.25234604	-70.114699
142.89289	0.25086668	-70.377371
143.09309	0.24915142	-70.641939
143.29329	0.24739553	-70.907527
143.49349	0.245599	-71.174192
143.69369	0.24376183	-71.441992
143.89389	0.24188401	-71.710989
144.09409	0.23996199	-72.025875
144.29429	0.23799424	-72.392174
144.49449	0.23598435	-72.75955
144.69469	0.2339323	-73.128084
144.89489	0.23183807	-73.497861
145.0951	0.22970166	-73.868972
145.2953	0.22815817	-74.223198
145.4955	0.22728162	-74.557166
145.6957	0.22637639	-74.890466
145.8959	0.22544245	-75.22309
146.0961	0.22447979	-75.555028
146.2963	0.22348838	-75.886268
146.4965	0.22166581	-76.123454
146.6967	0.21893686	-76.257537
146.8969	0.21615859	-76.387953
147.0971	0.21333107	-76.514501
147.2973	0.21045436	-76.63696
147.4975	0.20752856	-76.755095
147.6977	0.20504437	-77.024274
147.8979	0.20304527	-77.458129
148.0981	0.20102318	-77.895623
148.2983	0.19897819	-78.336927
148.4985	0.19691038	-78.782223
148.6987	0.19481983	-79.231702
148.8989	0.19305332	-79.640031
149.0991	0.19161816	-80.002673
149.2993	0.19015885	-80.365079
149.4995	0.18867537	-80.727253
149.6997	0.18716772	-81.089202
149.8999	0.18563591	-81.450934
150.1001	0.18351857	-81.702732
150.3003	0.18080686	-81.840421
150.5005	0.17805926	-81.972036
150.7007	0.17527593	-82.0972
150.9009	0.17245698	-82.215504
151.1011	0.16960259	-82.326504
151.3013	0.16719099	-82.472304
151.5015	0.16522007	-82.654893
151.7017	0.16322611	-82.833608
151.9019	0.16120917	-83.008258
152.1021	0.15916932	-83.178637
152.3023	0.15710663	-83.344527
152.5025	0.15482062	-83.417519
152.7027	0.15231896	-83.396141
152.9029	0.1497925	-83.362024
153.1031	0.14724164	-83.314343
153.3033	0.14466682	-83.252208
153.5035	0.14206848	-83.174647
153.7037	0.13933569	-83.332544
153.9039	0.13647821	-83.720404
154.1041	0.13360037	-84.107765
154.3043	0.13070225	-84.494594
154.5045	0.12778389	-84.880853
154.7047	0.12484537	-85.266501
154.9049	0.12219291	-85.499073
155.10511	0.11980225	-85.584276
155.30531	0.11739664	-85.65732
155.50551	0.11497632	-85.717329
155.70571	0.11254153	-85.763344
155.90591	0.11009258	-85.794312
156.10611	0.10785566	-85.688272
156.30631	0.10581019	-85.453579
156.50651	0.10375794	-85.194631
156.70671	0.10169969	-84.909799
156.90691	0.09963629	-84.597317
157.10711	0.097568659	-84.25527
157.30731	0.094908405	-83.756737
157.50751	0.091743471	-83.089606
157.70771	0.088589385	-82.347342
157.90791	0.085449889	-81.521752
158.10811	0.082329289	-80.603556
158.30831	0.079232561	-79.582246
158.50851	0.076300703	-78.760127
158.70871	0.07350006	-78.119585
158.90891	0.070713991	-77.399101
159.10911	0.067945612	-76.589232
159.30931	0.065198548	-75.67916
159.50951	0.062477026	-74.656466
159.70971	0.060262647	-73.808174
159.90991	0.058457784	-73.129886
160.11011	0.056665998	-72.384676
160.31031	0.054889378	-71.566444
160.51051	0.05313028	-70.668463
160.71071	0.051391364	-69.683325
160.91091	0.049297928	-67.921648
161.11111	0.046991801	-65.381322
161.31131	0.044811439	-62.551208
161.51151	0.042777054	-59.406895
161.71171	0.040911435	-55.928064
161.91191	0.039239692	-52.102029
162.11211	0.037857149	-47.874696
162.31231	0.036785861	-43.295797
162.51251	0.035998792	-38.459319
162.71271	0.035515512	-33.433955
162.91291	0.035349129	-28.306314
163.11311	0.035504721	-23.173513
163.31331	0.035936082	-19.403547
163.51351	0.036485953	-16.703053
163.71371	0.037138098	-14.097844
163.91391	0.037887668	-11.598774
164.11411	0.038729422	-9.2138185
164.31431	0.039657897	-6.9482341
164.51451	0.040998156	-3.2387725
164.71471	0.042843209	1.2829426
164.91491	0.044960127	5.3739881
165.11512	0.047310874	9.0454258
165.31532	0.049860882	12.322312
165.51552	0.052579712	15.237221
165.71572	0.054998623	17.47145
165.91592	0.057179113	19.248796
166.11612	0.059424277	20.869617
166.31632	0.061726327	22.347327
166.51652	0.064078421	23.694494
166.71672	0.066474554	24.922742
166.91692	0.06907625	25.811415
167.11712	0.071818966	26.456255
167.31732	0.074578391	27.034996
167.51752	0.077352739	27.554371
167.71772	0.080140452	28.02027
167.91792	0.082940171	28.437866
168.11812	0.085939389	28.886362
168.31832	0.089076865	29.34031
168.51852	0.092219612	29.750795
168.71872	0.095366548	30.122088
168.91892	0.098516722	30.457933
169.11912	0.10166929	30.761626
169.31932	0.10454911	31.016278
169.51952	0.10724603	31.23344
169.71972	0.10994608	31.428984
169.91992	0.11264878	31.604454
170.12012	0.11535368	31.761259
170.32032	0.1180604	31.900681
170.52052	0.12094895	32.096164
170.72072	0.12395945	32.31736
170.92092	0.1269724	32.51636
171.12112	0.12998718	32.694712
171.32132	0.13300324	32.853828
171.52152	0.13602005	32.995
171.72172	0.13912852	32.743569
171.92192	0.14229847	32.255619
172.12212	0.14547141	31.778229
172.32232	0.14864714	31.310746
172.52252	0.15182547	30.852573
172.72272	0.15500621	30.403156
172.92292	0.15803692	30.360283
173.12312	0.16097349	30.558223
173.32332	0.16391117	30.74302
173.52352	0.16684956	30.915377
173.72372	0.1697883	31.075946
173.92392	0.17272703	31.22534
174.12412	0.1755714	31.177794
174.32432	0.1783554	31.011125
174.52452	0.18113606	30.840969
174.72472	0.1839133	30.667496
174.92492	0.18668706	30.490863
175.12513	0.18945726	30.311219
175.32533	0.19274101	30.015503
175.52553	0.1963319	29.65539
175.72573	0.19992123	29.299698
175.92593	0.20350886	28.948211
176.12613	0.20709466	28.600725
176.32633	0.21067848	28.257052
176.52653	0.21399405	28.050173
176.72673	0.21715085	27.920955
