# MHZ S MA R 100		
50		0.99890734	-47.69984
50.2002		0.99996352	-47.790458
50.4004		1.0010174	-47.881408
50.600601	1.000296	-48.213129
50.800801	0.99957388	-48.544937
51.001001	0.99885105	-48.876831
51.201201	0.99812753	-49.208811
51.401401	0.99740331	-49.540879
51.601602	0.9966839	-49.872294
51.801802	0.99664746	-50.111997
52.002002	0.99661145	-50.351705
52.202202	0.99657587	-50.591419
52.402402	0.99654072	-50.831137
52.602603	0.99650601	-51.070859
52.802803	0.99646547	-51.311175
53.003003	0.99598345	-51.59292
53.203203	0.99550038	-51.874643
53.403403	0.99501626	-52.156345
53.603604	0.99453108	-52.438025
53.803804	0.99404486	-52.719685
54.004004	0.99358439	-53.001213
54.204204	0.99443954	-53.27702
54.404404	0.99529992	-53.552262
54.604605	0.99616546	-53.826939
54.804805	0.99703608	-54.101048
55.005005	0.99791171	-54.374587
55.205205	0.99876574	-54.645874
55.405405	0.99862616	-54.853963
55.605606	0.99848305	-55.062206
55.805806	0.99833641	-55.270602
56.006006	0.99818623	-55.479152
56.206206	0.9980325	-55.687854
56.406406	0.99785389	-55.898562
56.606607	0.99702936	-56.165346
56.806807	0.99620788	-56.431989
57.007007	0.99538943	-56.698491
57.207207	0.99457398	-56.96485
57.407407	0.99376152	-57.231065
57.607608	0.99300968	-57.50099
57.807808	0.99372049	-57.868329
58.008008	0.99443452	-58.235423
58.208208	0.99515174	-58.602273
58.408408	0.99587214	-58.968877
58.608609	0.99659569	-59.335236
58.808809	0.99723115	-59.693794
59.009009	0.99588307	-59.88835
59.209209	0.99453003	-60.083395
59.409409	0.99317204	-60.27893
59.60961	0.9918091	-60.474957
59.80981	0.99044121	-60.671477
60.01001	0.98917551	-60.879474
60.21021	0.98994442	-61.296208
60.41041	0.99071666	-61.712693
60.610611	0.9914922	-62.128928
60.810811	0.99227104	-62.544913
61.011011	0.99305316	-62.960648
61.211211	0.99382428	-63.365061
61.411411	0.99435419	-63.582804
61.611612	0.99487955	-63.800679
61.811812	0.99540034	-64.018685
62.012012	0.99591656	-64.236823
62.212212	0.9964282	-64.455091
62.412412	0.9968479	-64.678627
62.612613	0.99594329	-64.979994
62.812813	0.99503773	-65.281465
63.013013	0.99413126	-65.58304
63.213213	0.99322388	-65.884719
63.413413	0.99231559	-66.186502
63.613614	0.99146234	-66.49471
63.813814	0.99137569	-66.889463
64.014014	0.99129005	-67.284013
64.214214	0.99120541	-67.67836
64.414414	0.99112175	-68.072502
64.614615	0.99103906	-68.466439
64.814815	0.99096454	-68.859141
65.015015	0.9909797	-69.239005
65.215215	0.99099277	-69.619106
65.415415	0.99100376	-69.999442
65.615616	0.99101267	-70.380013
65.815816	0.99101952	-70.76082
66.016016	0.99103143	-71.134523
66.216216	0.99112097	-71.423937
66.416416	0.9912047	-71.713381
66.616617	0.99128261	-72.002855
66.816817	0.99135471	-72.292361
67.017017	0.99142101	-72.5819
67.217217	0.99149137	-72.880092
67.417417	0.99166131	-73.27001
67.617618	0.99182642	-73.660121
67.817818	0.99198671	-74.050424
68.018018	0.99214215	-74.440919
68.218218	0.99229276	-74.831606
68.418418	0.99236318	-75.225598
68.618619	0.99168574	-75.650503
68.818819	0.99100471	-76.075569
69.019019	0.99032011	-76.500794
69.219219	0.98963192	-76.92618
69.419419	0.98894015	-77.351726
69.61962	0.98830501	-77.771916
69.81982	0.9882236	-78.141335
70.02002	0.9881443	-78.510634
70.22022	0.98806708	-78.879811
70.42042	0.98799194	-79.248866
70.620621	0.98791887	-79.617797
70.820821	0.98784873	-79.99633
71.021021	0.98778806	-80.458519
71.221221	0.98772877	-80.920571
71.421421	0.98767086	-81.382485
71.621622	0.98761433	-81.844259
71.821822	0.98755916	-82.305895
72.022022	0.98743101	-82.763927
72.222222	0.98670313	-83.193885
72.422422	0.98597724	-83.623865
72.622623	0.98525334	-84.053865
72.822823	0.98453142	-84.483885
73.023023	0.98381148	-84.913925
73.223223	0.98315255	-85.348319
73.423423	0.98294712	-85.815496
73.623624	0.98274655	-86.282215
73.823824	0.98255078	-86.748474
74.024024	0.98235975	-87.214271
74.224224	0.98217342	-87.679603
74.424424	0.98194054	-88.149713
74.624625	0.98134327	-88.657179
74.824825	0.98074963	-89.164334
75.025025	0.98015957	-89.671177
75.225225	0.97957303	-90.177705
75.425425	0.97898995	-90.683916
75.625626	0.97837845	-91.182166
75.825826	0.97755421	-91.628242
76.026026	0.97673469	-92.074353
76.226226	0.97591988	-92.520497
76.426426	0.97510977	-92.966674
76.626627	0.97430434	-93.412881
76.826827	0.97359669	-93.888676
77.027027	0.97349676	-94.554915
77.227227	0.97340368	-95.220118
77.427427	0.97331734	-95.884277
77.627628	0.9732376	-96.547385
77.827828	0.97316434	-97.209438
78.028028	0.97294939	-97.85875
78.228228	0.97182595	-98.436406
78.428428	0.9706995	-99.014997
78.628629	0.9695701	-99.594525
78.828829	0.96843782	-100.17499
79.029029	0.96730272	-100.7564
79.229229	0.96615339	-101.34411
79.429429	0.96493499	-101.96402
79.62963	0.963715	-102.58489
79.82983	0.96249351	-103.20672
80.03003	0.96127061	-103.8295
80.23023	0.96004638	-104.45324
80.43043	0.95880671	-105.07863
80.630631	0.95748584	-105.70855
80.830831	0.95616232	-106.33895
81.031031	0.9548362	-106.96982
81.231231	0.95350752	-107.60116
81.431431	0.95217631	-108.23298
81.631632	0.95087897	-108.87698
81.831832	0.94977298	-109.58373
82.032032	0.94866461	-110.29086
82.232232	0.94755394	-110.99838
82.432432	0.94644103	-111.70629
82.632633	0.94532595	-112.41459
82.832833	0.94402697	-113.13159
83.033033	0.94180323	-113.8915
83.233233	0.93958436	-114.65205
83.433433	0.93737042	-115.41325
83.633634	0.93516143	-116.1751
83.833834	0.93295744	-116.9376
84.034034	0.93073013	-117.7066
84.234234	0.92836245	-118.50433
84.434434	0.92598806	-119.30184
84.634635	0.92360711	-120.09914
84.834835	0.92121974	-120.89622
85.035035	0.9188261	-121.69308
85.235235	0.91648459	-122.50474
85.435435	0.91441651	-123.38696
85.635636	0.91235397	-124.26964
85.835836	0.91029697	-125.15277
86.036036	0.90824555	-126.03635
86.236236	0.90619971	-126.9204
86.436436	0.90378691	-127.79684
86.636637	0.89970502	-128.63821
86.836837	0.89562847	-129.48128
87.037037	0.89155749	-130.32609
87.237237	0.88749226	-131.17265
87.437437	0.883433	-132.02098
87.637638	0.87959453	-132.89917
87.837838	0.87669011	-133.89945
88.038038	0.87379329	-134.89993
88.238238	0.87090402	-135.9006
88.438438	0.86802225	-136.90147
88.638639	0.86514793	-137.90254
88.838839	0.86210861	-138.88481
89.039039	0.85836114	-139.79027
89.239239	0.8546226	-140.69902
89.439439	0.85089349	-141.61107
89.63964	0.84717428	-142.52649
89.83984	0.8434655	-143.44529
90.04004	0.83970003	-144.39658
90.24024	0.83567603	-145.46685
90.44044	0.8316647	-146.5394
90.640641	0.82766629	-147.61425
90.840841	0.82368107	-148.69142
91.041041	0.81970932	-149.77095
91.241241	0.81595194	-150.87986
91.441441	0.81297912	-152.09529
91.641642	0.81001604	-153.31318
91.841842	0.8070631	-154.53355
92.042042	0.80412067	-155.75643
92.242242	0.80118916	-156.98181
92.442442	0.79784936	-158.19828
92.642643	0.79296303	-159.37554
92.842843	0.78809111	-160.55685
93.043043	0.78323417	-161.74224
93.243243	0.77839276	-162.9318
93.443443	0.77356744	-164.12557
93.643644	0.76890785	-165.36645
93.843844	0.76479212	-166.76353
94.044044	0.7606806	-168.16215
94.244244	0.7565734	-169.56232
94.444444	0.75247061	-170.96408
94.644645	0.74837233	-172.36745
94.844845	0.74419074	-173.78995
95.045045	0.73970744	-175.27477
95.245245	0.73522593	-176.7613
95.445445	0.73074632	-178.24957
95.645646	0.72626867	-179.73962
95.845846	0.72179308	178.76851
96.046046	0.71712941	177.2529
96.246246	0.71182406	175.66223
96.446446	0.70650958	174.06991
96.646647	0.70118606	172.47588
96.846847	0.6958536	170.88012
97.047047	0.6905123	169.28255
97.247247	0.68530844	167.65704
97.447447	0.68054813	165.94653
97.647648	0.67574549	164.23636
97.847848	0.67090084	162.52654
98.048048	0.66601453	160.81706
98.248248	0.66108688	159.10793
98.448448	0.65618322	157.39096
98.648649	0.65142981	155.64897
98.848849	0.64661605	153.90773
99.049049	0.6417426	152.16726
99.249249	0.63681017	150.4276
99.449449	0.63181947	148.68875
99.64965	0.62684076	146.91538
99.84985	0.62198981	145.03645
100.05005	0.61704099	143.15976
100.25025	0.6119956	141.28539
100.45045	0.60685496	139.41341
100.65065	0.60162041	137.5439
100.85085	0.59670772	135.64864
101.05105	0.59289691	133.67084
101.25125	0.58895824	131.69253
101.45145	0.58489364	129.71385
101.65165	0.58070508	127.73492
101.85185	0.57639459	125.75586
102.05205	0.5722196	123.78608
102.25225	0.56867149	121.8408
102.45245	0.56503519	119.89244
102.65265	0.56131177	117.94101
102.85285	0.55750232	115.98651
103.05305	0.55360796	114.02895
103.25325	0.54997297	112.07279
103.45345	0.54721539	110.12329
103.65365	0.5443963	108.16661
103.85385	0.54151575	106.20268
104.05405	0.53857383	104.23143
104.25425	0.53557068	102.25279
104.45445	0.53273134	100.299
104.65465	0.53044507	98.4238
104.85485	0.52811681	96.540334
105.05506	0.52574648	94.648519
105.25526	0.52333403	92.748266
105.45546	0.52087943	90.839483
105.65566	0.5186734	88.930548
105.85586	0.51719804	87.037959
106.05606	0.51570834	85.141392
106.25626	0.51420414	83.240824
106.45646	0.51268531	81.336232
106.65666	0.51115168	79.427591
106.85686	0.50972236	77.548007
107.05706	0.50858844	75.750204
107.25726	0.50745472	73.951963
107.45746	0.50632121	72.153282
107.65766	0.50518788	70.354157
107.85786	0.50405473	68.554586
108.05806	0.50330317	66.790036
108.25826	0.50348209	65.115881
108.45846	0.50365573	63.447482
108.65866	0.50382421	61.784832
108.85886	0.50398766	60.127925
109.05906	0.50414621	58.476755
109.25926	0.50423139	56.841323
109.45946	0.50413555	55.237866
109.65966	0.50401506	53.643921
109.85986	0.50387027	52.059497
110.06006	0.50370157	50.484603
110.26026	0.50350938	48.91925
110.46046	0.50373748	47.376644
110.66066	0.50494756	45.876125
110.86086	0.50610471	44.388222
111.06106	0.50720943	42.912857
111.26126	0.50826231	41.449956
111.46146	0.50926399	39.99945
111.66166	0.51022843	38.57821
111.86186	0.51114921	37.207567
112.06206	0.5119847	35.849596
112.26226	0.51273548	34.504286
112.46246	0.51340225	33.171634
112.66266	0.51398576	31.851644
112.86286	0.51471374	30.539483
113.06306	0.51583339	29.228441
113.26326	0.51683773	27.928626
113.46346	0.517727	26.640084
113.66366	0.51850151	25.362872
113.86386	0.5191617	24.097057
114.06406	0.51994697	22.874913
114.26426	0.52110479	21.731373
114.46446	0.52211598	20.597423
114.66466	0.52298007	19.473184
114.86486	0.52369672	18.358789
115.06507	0.52426566	17.254387
115.26527	0.52509465	16.169524
115.46547	0.52662558	15.112164
115.66567	0.52801796	14.061929
115.86587	0.52927116	13.018967
116.06607	0.53038462	11.983435
116.26627	0.53135788	10.955501
116.46647	0.53233519	9.9357833
116.66667	0.53346352	8.9230306
116.86687	0.53445154	7.9155834
117.06707	0.5352984	6.9136052
117.26727	0.53600331	5.917268
117.46747	0.53656556	4.9267525
117.66767	0.53724529	3.9456944
117.86787	0.53829403	2.976753
118.06807	0.53920141	2.0129538
118.26827	0.53996678	1.0544927
118.46847	0.54058954	0.10157376
118.66867	0.54106918	-0.84559058
118.86887	0.54163793	-1.7792552
119.06907	0.54252663	-2.6941039
119.26927	0.54330094	-3.6051817
119.46947	0.54396039	-4.5123583
119.66967	0.54450457	-5.4154985
119.86987	0.54493308	-6.3144622
120.07007	0.54542254	-7.1732645
120.27027	0.54613849	-7.9615783
120.47047	0.54675894	-8.7460946
120.67067	0.54728378	-9.5266876
120.87087	0.54771292	-10.303228
121.07107	0.54804632	-11.075581
121.27127	0.54839415	-11.852789
121.47147	0.54886229	-12.643594
121.67167	0.54925928	-13.432001
121.87187	0.54958497	-14.217944
122.07207	0.54983925	-15.001353
122.27227	0.55002201	-15.782157
122.47247	0.55036294	-16.550855
122.67267	0.55104837	-17.300701
122.87287	0.55167855	-18.048503
123.07307	0.55225345	-18.794209
123.27327	0.55277305	-19.537769
123.47347	0.55323735	-20.27913
123.67367	0.55359454	-21.000342
123.87387	0.55381801	-21.689053
124.07407	0.55400156	-22.376216
124.27427	0.55414515	-23.061799
124.47447	0.55424878	-23.745772
124.67467	0.55431244	-24.428105
124.87487	0.55426747	-25.086747
125.07508	0.55407187	-25.707163
125.27528	0.55384252	-26.326339
125.47548	0.55357939	-26.944251
125.67568	0.55328249	-27.560873
125.87588	0.55295181	-28.176182
126.07608	0.55255775	-28.840911
126.27628	0.55208588	-29.587462
126.47648	0.5515864	-30.333163
126.67668	0.55105931	-31.077998
126.87688	0.5505046	-31.82195
127.07708	0.54992227	-32.565001
127.27728	0.54948747	-33.2477
127.47748	0.54930881	-33.835124
127.67768	0.54910993	-34.421888
127.87788	0.54889084	-35.007986
128.07808	0.54865152	-35.593409
128.27828	0.54839197	-36.178147
128.47848	0.54811638	-36.779177
128.67868	0.54783315	-37.406304
128.87888	0.54753843	-38.033385
129.07908	0.54723223	-38.660418
129.27928	0.54691453	-39.287406
129.47948	0.54658534	-39.914347
129.67968	0.54608851	-40.515679
129.87988	0.54534148	-41.078285
130.08008	0.54457931	-41.640822
130.28028	0.54380201	-42.203287
130.48048	0.5430096	-42.765675
130.68068	0.54220207	-43.327985
130.88088	0.54142426	-43.895801
131.08108	0.54069869	-44.471812
131.28128	0.53995978	-45.047791
131.48148	0.53920752	-45.62374
131.68168	0.53844191	-46.199659
131.88188	0.53766294	-46.775549
132.08208	0.53641708	-47.325681
132.28228	0.53449781	-47.839374
132.48248	0.53255473	-48.35393
132.68268	0.53058792	-48.869362
132.88288	0.52859746	-49.385688
133.08308	0.52658343	-49.902922
133.28328	0.52520676	-50.466594
133.48348	0.5247487	-51.094534
133.68368	0.52428739	-51.722626
133.88388	0.52382283	-52.35087
134.08408	0.52335503	-52.979269
134.28428	0.52288398	-53.607825
134.48448	0.52254919	-54.189503
134.68468	0.52240121	-54.706743
134.88488	0.52224856	-55.223901
135.08509	0.52209124	-55.740977
135.28529	0.52192924	-56.257972
135.48549	0.52176256	-56.774887
135.68569	0.52091972	-57.289239
135.88589	0.51917176	-57.800937
136.08609	0.51741492	-58.313609
136.28629	0.51564924	-58.827268
136.48649	0.51387478	-59.341928
136.68669	0.51209158	-59.857605
136.88689	0.51016486	-60.464795
137.08709	0.50805713	-61.191003
137.28729	0.50594565	-61.918225
137.48749	0.50383049	-62.646472
137.68769	0.5017117	-63.375755
137.88789	0.49958933	-64.106084
138.08809	0.49771877	-64.718615
138.28829	0.49616767	-65.180546
138.48849	0.49461034	-65.643
138.68869	0.4930468	-66.105983
138.88889	0.49147707	-66.5695
139.08909	0.48990117	-67.033556
139.28929	0.48814037	-67.501831
139.48949	0.48614864	-67.975471
139.68969	0.48414701	-68.450021
139.88989	0.48213553	-68.925496
140.09009	0.48011423	-69.401909
140.29029	0.47808314	-69.879277
140.49049	0.47612699	-70.422749
140.69069	0.474272	-71.04677
140.89089	0.47241872	-71.672614
141.09109	0.47056725	-72.300302
141.29129	0.46871767	-72.929853
141.49149	0.46687009	-73.561288
141.69169	0.46512128	-74.192197
141.89189	0.46348856	-74.82183
142.09209	0.46185741	-75.452957
142.29229	0.4602279	-76.085592
142.49249	0.45860012	-76.719748
142.69269	0.45697414	-77.35544
142.89289	0.45496826	-77.866478
143.09309	0.45251795	-78.232964
143.29329	0.45006232	-78.600578
143.49349	0.44760144	-78.969338
143.69369	0.44513533	-79.339261
143.89389	0.44266407	-79.710365
144.09409	0.43982789	-80.180873
144.29429	0.43658441	-80.764589
144.49449	0.43334078	-81.351275
144.69469	0.43009715	-81.940995
144.89489	0.42685367	-82.533813
145.0951	0.42361051	-83.129794
145.2953	0.42091295	-83.711353
145.4955	0.41881582	-84.275833
145.6957	0.41671901	-84.842368
145.8959	0.41462262	-85.410989
146.0961	0.41252675	-85.981726
146.2963	0.41043147	-86.55461
146.4965	0.40757902	-87.086116
146.6967	0.40390885	-87.572689
146.8969	0.40023415	-88.061064
147.0971	0.39655501	-88.551287
147.2973	0.39287151	-89.043407
147.4975	0.38918375	-89.537474
147.6977	0.38602169	-90.027744
147.8979	0.38341773	-90.514846
148.0981	0.3808182	-91.005213
148.2983	0.37822326	-91.498906
148.4985	0.37563307	-91.995983
148.6987	0.37304779	-92.496507
148.8989	0.37065792	-93.079373
149.0991	0.36847121	-93.746652
149.2993	0.36629392	-94.417683
149.4995	0.36412627	-95.092513
149.6997	0.36196846	-95.771194
149.8999	0.3598207	-96.453774
150.1001	0.35679596	-96.997688
150.3003	0.35288694	-97.402483
150.5005	0.34897857	-97.810706
150.7007	0.345071	-98.222466
150.9009	0.34116439	-98.637878
151.1011	0.3372589	-99.057059
151.3013	0.33402956	-99.5485
151.5015	0.33146232	-100.1101
151.7017	0.32889906	-100.675
151.9019	0.32633991	-101.24326
152.1021	0.323785	-101.81497
152.3023	0.32123445	-102.39018
152.5025	0.31830371	-102.9349
152.7027	0.31501375	-103.45188
152.9029	0.31173236	-103.97406
153.1031	0.30845977	-104.50158
153.3033	0.30519621	-105.03459
153.5035	0.30194191	-105.57326
153.7037	0.29839115	-106.15511
153.9039	0.2945676	-106.77946
154.1041	0.29075706	-107.41234
154.3043	0.28696	-108.05407
154.5045	0.28317686	-108.70493
154.7047	0.27940812	-109.36526
154.9049	0.27576328	-110.03092
155.10511	0.27223584	-110.70343
155.30531	0.26872835	-111.38744
155.50551	0.26524152	-112.08331
155.70571	0.26177605	-112.79144
155.90591	0.2583327	-113.51222
156.10611	0.25540833	-114.20055
156.30631	0.25294261	-114.85802
156.50651	0.25049457	-115.52398
156.70671	0.24806466	-116.19861
156.90691	0.24565334	-116.88208
157.10711	0.24326108	-117.57458
157.30731	0.24016257	-118.23529
157.50751	0.23645144	-118.87032
157.70771	0.23275514	-119.51565
157.90791	0.22907411	-120.17174
158.10811	0.2254088	-120.83902
158.30831	0.22175972	-121.51799
158.50851	0.21802939	-122.24667
158.70871	0.21423987	-123.02556
158.90891	0.21047703	-123.82553
159.10911	0.20674226	-124.64754
159.30931	0.20303701	-125.49261
159.50951	0.19936282	-126.36176
159.70971	0.1961239	-127.24543
159.90991	0.19324994	-128.14169
160.11011	0.19040982	-129.05865
160.31031	0.18760487	-129.99696
160.51051	0.18483649	-130.95726
160.71071	0.18210612	-131.94022
160.91091	0.178665	-132.93851
161.11111	0.17466949	-133.96488
161.31131	0.17072862	-135.03058
161.51151	0.16684528	-136.1377
161.71171	0.16302258	-137.28838
161.91191	0.15926382	-138.48486
162.11211	0.15550771	-139.82977
162.31231	0.15178306	-141.30942
162.51251	0.14814887	-142.84916
162.71271	0.14461056	-144.45163
162.91291	0.14117387	-146.1194
163.11311	0.1378449	-147.85495
163.31331	0.13508765	-149.38897
163.51351	0.13275117	-150.76066
163.71371	0.1304738	-152.17215
163.91391	0.12825837	-153.62439
164.11411	0.12610782	-155.11819
164.31431	0.1240252	-156.6543
164.51451	0.1210303	-158.3389
164.71471	0.11740375	-160.18806
164.91491	0.11389754	-162.13903
165.11512	0.11052127	-164.19716
165.31532	0.10728524	-166.36749
165.51552	0.1042005	-168.65454
165.71572	0.1014261	-171.14075
165.91592	0.098947708	-173.80091
166.11612	0.096673418	-176.57447
166.31632	0.094615194	-179.45773
166.51652	0.092784587	177.55532
166.71672	0.0911924	174.47315
166.91692	0.0895299	171.57781
167.11712	0.087841366	168.78068
167.31732	0.086348707	165.8897
167.51752	0.085061337	162.91299
167.71772	0.083987766	159.86085
167.91792	0.083135311	156.74565
168.11812	0.082288882	153.35473
168.31832	0.081572312	149.75104
168.51852	0.08115721	146.10978
168.71872	0.081045395	142.45661
168.91892	0.081235283	138.81771
169.11912	0.081721922	135.21864
169.31932	0.082525778	131.93228
169.51952	0.083575599	128.8899
169.71972	0.084829148	125.93265
169.91992	0.086275963	123.06969
170.12012	0.08790493	120.30791
170.32032	0.089704571	117.652
170.52052	0.091421724	114.70996
170.72072	0.093211113	111.62238
170.92092	0.095238142	108.65911
171.12112	0.097486508	105.82583
171.32132	0.099939794	103.12539
171.52152	0.10258182	100.55817
171.72172	0.10511812	97.93689
171.92192	0.10766455	95.318646
172.12212	0.11039376	92.821237
172.32232	0.11329128	90.443165
172.52252	0.11634328	88.181655
172.72272	0.11953668	86.032966
172.92292	0.12276084	84.43162
173.12312	0.12597997	83.177569
173.32332	0.12923629	81.982956
173.52352	0.13252594	80.843912
173.72372	0.13584542	79.756822
173.92392	0.13919153	78.718311
174.12412	0.14198844	77.425226
174.32432	0.14448996	75.991993
174.52452	0.14705197	74.601377
174.72472	0.1496711	73.252135
174.92492	0.15234411	71.942982
175.12513	0.15506794	70.672605
175.32533	0.15874442	69.293531
175.52553	0.16302626	67.891312
175.72573	0.16737129	66.555687
175.92593	0.17177342	65.282461
176.12613	0.17622706	64.067675
176.32633	0.18072708	62.907612
176.52653	0.18447614	61.932037
176.72673	0.18779015	61.065024
176.92693	0.19112623	60.223695
