#  HZ   S   RI   R     50.0 
! Rohde & Schwarz ZVL3 2Ports - Version 3.31 - 1303.6509k03 SN: 101102
! Date: 2016-10-20 14:24:07
! Data & Calibration Information:
! Trc1:S11(TOSM) Trc2:S21(TOSM) Trc3:S12(TOSM) Trc4:S22(TOSM)
! 
! 
! 
 3.000000000000000E7     8.914908133506073E-1  -3.622095589253067E-1  -1.355276903105980E-2   6.933374300713879E-2  -1.283358511965689E-2   6.630897580130765E-2   8.953602317871623E-1  -3.554894616478616E-1  
 3.120000000000000E7     8.740772347537082E-1  -3.911659587013423E-1  -1.298144029562638E-2   6.711500685434937E-2  -1.357309649576472E-2   6.718724797554994E-2   8.755278394165845E-1  -3.876151287209802E-1  
 3.240000000000000E7     8.640126243092958E-1  -4.018272663555280E-1  -1.641858616833943E-2   7.075932617141259E-2  -1.681868225126544E-2   7.065077543915589E-2   8.657282480145017E-1  -4.051818044797031E-1  
 3.360000000000000E7     8.520559006967260E-1  -4.143573995302170E-1  -1.585407627801369E-2   7.538920943640572E-2  -1.616921980098194E-2   7.546157250808112E-2   8.547629450900871E-1  -4.218767414750384E-1  
 3.480000000000000E7     8.410910648331998E-1  -4.263400760536604E-1  -1.864205882626523E-2   7.849927967563115E-2  -1.860278605129264E-2   7.883555360599584E-2   8.391938453980052E-1  -4.368203474675486E-1  
 3.600000000000000E7     8.321561413951106E-1  -4.336232521721271E-1  -2.168833156656555E-2   8.580699939289778E-2  -2.177137855952677E-2   8.602863374577459E-2   8.343683000600896E-1  -4.373935630105346E-1  
 3.720000000000000E7     8.205843420702952E-1  -4.367444609981206E-1  -2.149692024724455E-2   9.677238062215149E-2  -2.046451375216349E-2   9.702257204163839E-2   8.154015645848668E-1  -4.525603557488844E-1  
 3.840000000000000E7     8.119692509018628E-1  -4.487469520853132E-1  -1.479238032029082E-2   1.074227376774552E-1  -1.442802404120228E-2   1.077842088182356E-1   8.092463785014495E-1  -4.562010156020490E-1  
 3.960000000000000E7     8.141510314898137E-1  -4.597630052229234E-1  -7.769838120089369E-3   1.109249992429640E-1  -6.296346429880995E-3   1.104510184367495E-1   8.020453155271871E-1  -4.762757323795423E-1  
 4.080000000000000E7     7.936087285706086E-1  -4.799941362119998E-1  -6.039383679938203E-3   1.123229369276689E-1  -6.501362836611162E-3   1.125309886432420E-1   7.983538354555091E-1  -4.838294828372622E-1  
 4.200000000000000E7     7.811773947383783E-1  -4.902103225479607E-1  -5.457922193716755E-3   1.210031069784407E-1  -5.524938665380324E-3   1.212281789511398E-1   7.829216234606885E-1  -4.905293532053702E-1  
 4.320000000000000E7     7.752190242886505E-1  -4.991708257881857E-1   3.032692549130914E-3   1.305225524686811E-1   1.045531441079406E-3   1.306951565665499E-1   7.815887863608446E-1  -5.034604347199727E-1  
 4.440000000000000E7     7.704880647501949E-1  -5.099333250063990E-1   9.657277616981177E-3   1.341916931732519E-1   1.020992170906974E-2   1.338670404343983E-1   7.703375312864820E-1  -5.155121614118915E-1  
 4.560000000000000E7     7.648626103018751E-1  -5.176361243338158E-1   1.588682943740129E-2   1.368490575436120E-1   1.524117298382392E-2   1.376360503653691E-1   7.650671827606292E-1  -5.238517572384237E-1  
 4.680000000000000E7     7.570850911305594E-1  -5.364160100177106E-1   2.018793649965889E-2   1.393010448525318E-1   2.192066075185668E-2   1.389718600521619E-1   7.537737054418848E-1  -5.453616006758597E-1  
 4.800000000000000E7     7.378441950062957E-1  -5.554501103796153E-1   2.404337565138137E-2   1.415880992809582E-1   2.520514740006397E-2   1.414134277072250E-1   7.403080879953736E-1  -5.587450561240835E-1  
 4.920000000000000E7     7.148697346036913E-1  -5.737087659976345E-1   2.924431984052957E-2   1.443471742502307E-1   2.924335056221393E-2   1.444337995575855E-1   7.194849978427865E-1  -5.683824888736597E-1  
 5.040000000000000E7     7.098402198422024E-1  -5.831474250999706E-1   3.261151499506396E-2   1.497412631844476E-1   3.109277727471719E-2   1.497595005875545E-1   7.156513550743677E-1  -5.840417624307843E-1  
 5.160000000000000E7     6.944691149746300E-1  -5.965428440097612E-1   3.889638604130481E-2   1.536703877597515E-1   3.842336729467120E-2   1.527299470555859E-1   6.895220366645111E-1  -6.031659659786728E-1  
 5.280000000000000E7     6.714506092345097E-1  -6.058483499895025E-1   4.255228685327647E-2   1.566853191335397E-1   4.353313822887155E-2   1.573570333753957E-1   6.684925067261608E-1  -6.219713455978362E-1  
 5.400000000000000E7     6.641502321058616E-1  -6.179857671758970E-1   4.730760608802414E-2   1.593775655579380E-1   4.769126442075498E-2   1.594413818642627E-1   6.646446798551779E-1  -6.222496662300630E-1  
 5.520000000000000E7     6.464517132586877E-1  -6.319880832116107E-1   5.019478688471420E-2   1.659651471183458E-1   5.033645604279960E-2   1.659465330874236E-1   6.515659745173381E-1  -6.351386327125060E-1  
 5.640000000000000E7     6.349542396943101E-1  -6.421202712114547E-1   5.646832944790725E-2   1.700864257128227E-1   5.807265117397788E-2   1.695547942868138E-1   6.298545987120451E-1  -6.440321009206983E-1  
 5.760000000000000E7     6.127225822241360E-1  -6.507527868179313E-1   6.235778943545034E-2   1.745122212724364E-1   6.261968433787193E-2   1.741556452779474E-1   6.105134456979607E-1  -6.564530281944899E-1  
 5.880000000000000E7     5.902659736841566E-1  -6.634407990866812E-1   6.969684109610795E-2   1.802470765422515E-1   6.816267979264387E-2   1.808908648361740E-1   5.930378097992735E-1  -6.702842869157153E-1  
 6.000000000000000E7     5.792156734229719E-1  -6.640357322565974E-1   7.591237549621129E-2   1.858841530079799E-1   7.667073619071033E-2   1.857331670234527E-1   5.714432576936109E-1  -6.682588055837875E-1  
 6.120000000000000E7     5.526005973592559E-1  -6.808130705899120E-1   8.706755399115795E-2   1.909855517107768E-1   8.545704107155867E-2   1.926060973385338E-1   5.565106827549480E-1  -6.857199028440592E-1  
 6.240000000000000E7     5.499803117244191E-1  -6.843044391731713E-1   9.444912649963402E-2   1.974549262858778E-1   9.641706192542263E-2   1.966997217008121E-1   5.394673302401599E-1  -6.972064828729216E-1  
 6.360000000000000E7     5.338440439669548E-1  -6.918711466721798E-1   1.044882168566194E-1   1.989317011772608E-1   1.052934826824848E-1   1.996153124016900E-1   5.175591934758430E-1  -7.002904301312812E-1  
 6.480000000000000E7     4.971384072187898E-1  -7.068827315126127E-1   1.166827761152367E-1   2.019583406109480E-1   1.146325474560205E-1   2.039035993356031E-1   4.993998881935952E-1  -7.114682070971785E-1  
 6.600000000000000E7     4.751157347095361E-1  -7.154254459695232E-1   1.284005042695721E-1   2.050231971351250E-1   1.280029135922745E-1   2.081076004437958E-1   4.831169717511949E-1  -7.173903551294178E-1  
 6.720000000000000E7     4.576791915979399E-1  -7.248649217442753E-1   1.408079693557555E-1   2.093162267637524E-1   1.383840143748624E-1   2.116259686863438E-1   4.537107083396876E-1  -7.265549305514866E-1  
 6.840000000000000E7     4.429480210587077E-1  -7.317864544033254E-1   1.514412885976864E-1   2.133670460518860E-1   1.543125294059943E-1   2.118006702981014E-1   4.292700635094957E-1  -7.398803465573161E-1  
 6.960000000000000E7     4.078074640277783E-1  -7.408224866111045E-1   1.690011537371071E-1   2.086631195609231E-1   1.665195176804767E-1   2.112063859142951E-1   4.140135927025377E-1  -7.427392923485462E-1  
 7.080000000000000E7     3.786737692823453E-1  -7.558936324923815E-1   1.803073118392565E-1   2.111134074312996E-1   1.795008881214718E-1   2.101747170928712E-1   3.869185109007105E-1  -7.477617449090871E-1  
 7.200000000000000E7     3.598103931207251E-1  -7.531989819917668E-1   1.921541353115278E-1   2.100097905853064E-1   1.934759469621663E-1   2.083888017564604E-1   3.472725796948569E-1  -7.628684303142864E-1  
 7.320000000000000E7     3.291631731368007E-1  -7.626295642537116E-1   2.074979321000253E-1   2.085218542185656E-1   2.065456779721399E-1   2.062526612612775E-1   3.323807425349516E-1  -7.570457813478145E-1  
 7.440000000000000E7     2.973909330627769E-1  -7.639597087027212E-1   2.202960894288586E-1   2.074486369276764E-1   2.211734064701788E-1   2.066793488665423E-1   2.973876677853483E-1  -7.621638354980614E-1  
 7.560000000000000E7     2.630530229789890E-1  -7.635022264117314E-1   2.367946372703108E-1   2.006003939792424E-1   2.355792370976752E-1   2.029140374398379E-1   2.578935954729048E-1  -7.668449536705547E-1  
 7.680000000000000E7     2.301928341743410E-1  -7.614364859295826E-1   2.503328688054106E-1   1.980542327707189E-1   2.531126739302408E-1   1.969015134301956E-1   2.316964787276733E-1  -7.629010277019838E-1  
 7.800000000000000E7     2.014337672981571E-1  -7.559430721160746E-1   2.669866847065380E-1   1.976714010798309E-1   2.693973469120168E-1   1.949702395935982E-1   1.877697850610997E-1  -7.587095558986022E-1  
 7.920000000000000E7     1.605938538613214E-1  -7.531792428518904E-1   2.891371301462714E-1   1.880017657226733E-1   2.854709018383640E-1   1.887830405337463E-1   1.626220904472287E-1  -7.490450728606586E-1  
 8.040000000000000E7     1.236964285764315E-1  -7.416482241158846E-1   3.082736187041166E-1   1.775938781889627E-1   3.096384650911119E-1   1.769475555159991E-1   1.218220921931128E-1  -7.437017986192754E-1  
 8.160000000000000E7     8.892159406771268E-2  -7.322393823383722E-1   3.295627784645674E-1   1.668119728310958E-1   3.279400180277480E-1   1.686833449301714E-1   8.952893603967138E-2  -7.285899319157517E-1  
 8.280000000000000E7     5.003556383481479E-2  -7.167834106643074E-1   3.489263395214269E-1   1.512572399125421E-1   3.495624462838783E-1   1.499353963323841E-1   5.157336036619141E-2  -7.207260035072154E-1  
 8.400000000000000E7     7.148862711511146E-3  -7.023708281491573E-1   3.685442692387853E-1   1.341173026539889E-1   3.680782807161408E-1   1.317504816769023E-1   2.514482912693229E-2  -7.013021502729754E-1  
 8.520000000000000E7    -2.248834217330599E-2  -6.758472756687712E-1   3.869217558600322E-1   1.077516233130292E-1   3.869490647164939E-1   1.125135698757064E-1  -2.141078763014667E-2  -6.777409938294523E-1  
 8.640000000000000E7    -5.939739479869198E-2  -6.490438484129846E-1   4.034422397658676E-1   8.236719975912131E-2   4.062685221982703E-1   8.281370194630014E-2  -5.682508663574391E-2  -6.621935847748803E-1  
 8.760000000000000E7    -1.008358398768756E-1  -6.142035194130064E-1   4.157907509766471E-1   5.040588797735304E-2   4.162011532557965E-1   5.943525222150802E-2  -7.973922890185795E-2  -6.267096614938186E-1  
 8.880000000000000E7    -1.283468705809430E-1  -5.775605723745266E-1   4.265105953381430E-1   2.156189216272558E-2   4.286681447489487E-1   2.119817384028180E-2  -1.316224744643312E-1  -5.878905266392588E-1  
 9.000000000000000E7    -1.546007039090309E-1  -5.369711272192872E-1   4.335001824666604E-1  -1.456704794843707E-2   4.334539083914056E-1  -1.416338060605637E-2  -1.556268767433932E-1  -5.470186499465384E-1  
 9.120000000000000E7    -1.703245157032826E-1  -4.890392599927443E-1   4.356520350841979E-1  -4.382722418338598E-2   4.359159216092545E-1  -4.678637276175840E-2  -1.770696132995810E-1  -4.958832820765155E-1  
 9.240000000000000E7    -2.005002155767473E-1  -4.355118223643384E-1   4.333103565432541E-1  -8.983114148194667E-2   4.336332482532370E-1  -8.635368187707292E-2  -1.991858284437982E-1  -4.457115964269530E-1  
 9.360000000000000E7    -2.040988033291120E-1  -3.859290723571695E-1   4.220351171067491E-1  -1.282479457627068E-1   4.223626855423733E-1  -1.299481493205128E-1  -2.105608170568666E-1  -3.901976523159382E-1  
 9.480000000000000E7    -2.060148055912961E-1  -3.293406387794398E-1   4.050270220030012E-1  -1.684240578293849E-1   4.073248008230527E-1  -1.682870511197529E-1  -2.146199812232628E-1  -3.368641136787331E-1  
 9.600000000000000E7    -1.999341314005409E-1  -2.766863552227620E-1   3.806727548001779E-1  -2.063480438567563E-1   3.826609231270536E-1  -2.055923889726427E-1  -2.029738727606306E-1  -2.870109511940179E-1  
 9.720000000000000E7    -1.884460050512277E-1  -2.272188481375898E-1   3.486932856677777E-1  -2.423492851552396E-1   3.503292527218423E-1  -2.395789032656205E-1  -1.931225095100421E-1  -2.347518947995302E-1  
 9.840000000000000E7    -1.720503072979727E-1  -1.820887733537048E-1   3.131620781070107E-1  -2.682936207547846E-1   3.136329188510087E-1  -2.679233997620186E-1  -1.714898878042781E-1  -1.871106194543408E-1  
 9.960000000000000E7    -1.487931692658600E-1  -1.434822463808364E-1   2.716002555630733E-1  -2.888583603653885E-1   2.711296618791256E-1  -2.893681654879135E-1  -1.483296476592748E-1  -1.430604145600841E-1  
 1.008000000000000E8    -1.170660646200644E-1  -1.081351663370706E-1   2.280206568760428E-1  -3.018341458841163E-1   2.265996495753122E-1  -3.025922285817977E-1  -1.211915359531637E-1  -1.136981300652467E-1  
 1.020000000000000E8    -8.963652927365222E-2  -7.653878913809008E-2   1.805445324822670E-1  -3.085574628804302E-1   1.822194675654000E-1  -3.077605901897612E-1  -8.447889337923416E-2  -8.161018811250836E-2  
 1.032000000000000E8    -5.795836916611491E-2  -5.480066619745681E-2   1.353689775779864E-1  -3.062657746837741E-1   1.359597055747865E-1  -3.058000406506916E-1  -5.758050053979711E-2  -5.894454259687970E-2  
 1.044000000000000E8    -2.802553811825997E-2  -3.749881016127633E-2   9.314690836198025E-2  -2.957356682537079E-1   9.245428219408382E-2  -2.958296584126213E-1  -2.705945238309377E-2  -4.249667867297247E-2  
 1.056000000000000E8     1.542690214629679E-3  -2.257844919211957E-2   5.059692489775083E-2  -2.801575294285675E-1   5.287504453843121E-2  -2.796443400716951E-1   8.312938013841736E-3  -2.723837335888020E-2  
 1.068000000000000E8     2.927704031146547E-2  -1.122450979907792E-2   1.707930184540075E-2  -2.563162544044909E-1   1.606924176132034E-2  -2.564032403795543E-1   3.023880963211000E-2  -1.961670837272708E-2  
 1.080000000000000E8     5.740148957194076E-2  -3.930934622010633E-3  -1.343859639218699E-2  -2.284959187667428E-1  -1.406423831326165E-2  -2.283857721566257E-1   5.677277251026904E-2  -1.538585064925350E-2  
 1.092000000000000E8     8.263048908695819E-2   5.177227204114216E-3  -3.884107013843487E-2  -1.967779288883935E-1  -3.724614823966534E-2  -1.970077294786518E-1   8.395228951988863E-2  -7.554186998911197E-3  
 1.104000000000000E8     1.053817512986605E-1   1.024366492989776E-2  -5.563704551349806E-2  -1.630985118145361E-1  -5.506260860076977E-2  -1.632059607587288E-1   1.043244856645234E-1  -2.885049636109722E-3  
 1.116000000000000E8     1.326860222664888E-1   1.472631512372816E-2  -6.565094620957400E-2  -1.286144901905413E-1  -6.546045363239081E-2  -1.286159259683372E-1   1.294092577625515E-1  -7.452898489106978E-4  
 1.128000000000000E8     1.587393757839694E-1   1.465929170552983E-2  -6.966314226380777E-2  -9.490499375223988E-2  -7.017563197470764E-2  -9.464383086804401E-2   1.536054924602581E-1   4.601618449824146E-3  
 1.140000000000000E8     1.802128158523601E-1   1.455751610328641E-2  -6.827238939037318E-2  -6.290573603597345E-2  -6.812656153906119E-2  -6.317630172666279E-2   1.731253233785686E-1  -7.543005901628531E-4  
 1.152000000000000E8     2.044831923624455E-1   1.170803703870769E-2  -6.136352291381125E-2  -3.428941041845743E-2  -6.137627495780468E-2  -3.418829248981202E-2   1.996863282584672E-1  -3.866970202048708E-3  
 1.164000000000000E8     2.295701150904790E-1   4.958323975211789E-3  -5.058241576430177E-2  -9.635732951503512E-3  -5.056375120258454E-2  -9.776695804040133E-3   2.215100582242990E-1  -5.373949522199563E-3  
 1.176000000000000E8     2.515523413162586E-1  -4.330573265881500E-3  -3.716428173162361E-2   1.051609874181202E-2  -3.710238548860803E-2   1.051909265522477E-2   2.382142954086123E-1  -1.851511924185827E-2  
 1.188000000000000E8     2.729489087291712E-1  -1.997027797762595E-2  -2.249620615692908E-2   2.606136209506585E-2  -2.273257787841958E-2   2.589382410518005E-2   2.611289680265080E-1  -3.126898917861470E-2  
 1.200000000000000E8     2.885195155802819E-1  -3.051806007590145E-2  -8.565692972375052E-3   3.698295141088576E-2  -8.147418261675523E-3   3.700609938525763E-2   2.757739079515776E-1  -4.406889737101183E-2  
 1.212000000000000E8     2.998469237943362E-1  -5.048047228723462E-2   4.697563153868108E-3   4.466764896592747E-2   4.489406776626579E-3   4.464812962583692E-2   2.836730521808383E-1  -6.001110045682014E-2  
 1.224000000000000E8     3.082186849456627E-1  -6.889779664794500E-2   1.455861107416356E-2   5.017142081525819E-2   1.541491801375079E-2   4.985175380467663E-2   2.907311603380333E-1  -8.088573074718777E-2  
 1.236000000000000E8     3.121685430261594E-1  -8.820890292866332E-2   2.303771879116341E-2   5.396171386034793E-2   2.264147453667709E-2   5.436902643116007E-2   2.941941644269021E-1  -9.329635131969497E-2  
 1.248000000000000E8     3.085768475337574E-1  -1.052800489108663E-1   2.923507633630397E-2   5.836814325100619E-2   2.886838212013234E-2   5.857792485223735E-2   2.930631747069911E-1  -1.046329308103670E-1  
 1.260000000000000E8     3.072446533924536E-1  -1.141164755607354E-1   3.307940711199200E-2   6.385594788659231E-2   3.275460504796359E-2   6.421278142485197E-2   2.876034815550489E-1  -1.132965183131345E-1  
 1.272000000000000E8     2.980478462861753E-1  -1.262587829134849E-1   3.754179422877309E-2   7.040368140650453E-2   3.732529151715103E-2   7.068033481241720E-2   2.797846010663218E-1  -1.237694089734282E-1  
 1.284000000000000E8     2.903429036344559E-1  -1.322354305873880E-1   4.154824115304112E-2   7.908542538256359E-2   4.169686345737706E-2   7.886877633530837E-2   2.742373429998337E-1  -1.291652300480569E-1  
 1.296000000000000E8     2.834445041349703E-1  -1.373118845946436E-1   4.669051943364059E-2   8.889563055762953E-2   4.655365481299333E-2   8.896031825655736E-2   2.701718431877590E-1  -1.247636473694851E-1  
 1.308000000000000E8     2.756286263688335E-1  -1.350733723841096E-1   5.308435469952864E-2   9.967004878759032E-2   5.314025468676766E-2   9.961979619636774E-2   2.636976910252164E-1  -1.189008087037660E-1  
 1.320000000000000E8     2.696623468267722E-1  -1.299187840671443E-1   6.251682081572629E-2   1.104131298749852E-1   6.102628031900072E-2   1.113185859824530E-1   2.624112327721558E-1  -1.212154185553432E-1  
 1.332000000000000E8     2.654318793983835E-1  -1.233048417883176E-1   7.412908788443957E-2   1.212397536761566E-1   7.333548931453926E-2   1.214904383891138E-1   2.634016256689002E-1  -1.116254240307750E-1  
 1.344000000000000E8     2.618643192323283E-1  -1.187684132389447E-1   8.653035152697898E-2   1.317813423536919E-1   8.774512712891233E-2   1.308539958463175E-1   2.618049348407115E-1  -1.105216776734945E-1  
 1.356000000000000E8     2.645907916617729E-1  -1.143478795276562E-1   1.011480207643729E-1   1.413867915935285E-1   1.004041555705293E-1   1.417431238699656E-1   2.690009290183270E-1  -1.065606137933831E-1  
 1.368000000000000E8     2.656910222513311E-1  -1.033063234831157E-1   1.181290963995000E-1   1.485756706112771E-1   1.174123985527319E-1   1.493498784775401E-1   2.723809111482844E-1  -9.469517997453641E-2  
 1.380000000000000E8     2.682864848045205E-1  -1.001491468956086E-1   1.370869872246737E-1   1.533115144338312E-1   1.376284599436970E-1   1.522263573729612E-1   2.713941189245053E-1  -9.325832373870072E-2  
 1.392000000000000E8     2.766788931352026E-1  -9.582514084613868E-2   1.576373638221171E-1   1.543949737076107E-1   1.561004992255025E-1   1.560457155846093E-1   2.844209220742581E-1  -9.775257148593664E-2  
 1.404000000000000E8     2.819146883046309E-1  -9.068928609828578E-2   1.776051104234599E-1   1.546584826848707E-1   1.763631665597495E-1   1.560285126020632E-1   2.948254456478724E-1  -8.236352668552421E-2  
 1.416000000000000E8     2.883379102067681E-1  -8.496379192659725E-2   1.966099152486944E-1   1.539286417025226E-1   1.959581932529785E-1   1.548606240980771E-1   2.923337687530799E-1  -8.823557406518666E-2  
