# MHZ S MA R 100		
10	1.001055	-8.2265324
10.29	1.00024	-8.5252522
10.58	0.99945214	-8.824451
10.87	0.99869162	-9.1241138
11.16	0.99795846	-9.424225
11.45	0.99725272	-9.7247693
11.74	0.99797109	-10.022949
12.03	0.99871644	-10.320691
12.32	0.99948873	-10.617982
12.61	1.0002879	-10.914805
12.9	1.0011138	-11.211146
13.19	1.0000517	-11.440408
13.48	0.99900561	-11.670154
13.77	0.99797561	-11.900378
14.06	0.99696176	-12.131074
14.35	0.99596411	-12.362236
14.64	0.99713924	-12.624546
14.93	0.99833522	-12.886233
15.22	0.99955197	-13.147288
15.51	1.0007894	-13.407703
15.8	1.0020475	-13.667469
16.09	1.0013233	-13.884718
16.38	1.0006135	-14.102277
16.67	0.99991823	-14.320142
16.96	0.99923738	-14.538307
17.25	0.99857104	-14.756767
17.54	0.99847296	-14.946433
17.83	0.99838582	-15.136133
18.12	0.99830963	-15.325865
18.41	0.99824438	-15.515624
18.7	0.99819009	-15.705405
18.99	1.0002582	-15.966479
19.28	1.0023469	-16.22647
19.57	1.0044562	-16.485375
19.86	1.0065859	-16.743189
20.15	1.008736	-16.999909
20.44	1.0054509	-17.319672
20.73	1.0021973	-17.641522
21.02	0.99897562	-17.965458
21.31	0.99578604	-18.29148
21.6	0.9926289	-18.619586
21.89	0.99452005	-18.980012
22.18	0.9964504	-19.339055
22.47	0.99841973	-19.696696
22.76	1.0004278	-20.052916
23.05	1.0024744	-20.407694
23.34	1.0010913	-20.581534
23.63	0.99971753	-20.755854
23.92	0.998353	-20.930651
24.21	0.99699778	-21.105926
24.5	0.99565192	-21.281676
24.79	0.99637721	-21.7256
25.08	0.99716222	-22.168852
25.37	0.99800682	-22.61138
25.66	0.99891084	-23.053134
25.95	0.99987414	-23.494062
26.24	0.99986861	-23.447185
26.53	0.99986375	-23.400308
26.82	0.99985956	-23.353431
27.11	0.99985604	-23.306553
27.4	0.99985319	-23.259674
27.69	0.99907644	-23.641264
27.98	0.99834407	-24.02343
28.27	0.99765619	-24.40614
28.56	0.99701287	-24.789362
28.85	0.99641421	-25.173061
29.14	0.99919336	-25.386754
29.43	1.0019863	-25.599258
29.72	1.004793	-25.810579
30.01	1.0076133	-26.020719
30.3	1.010447	-26.229684
30.59	1.005686	-26.584402
30.88	1.0009638	-26.942481
31.17	0.99628115	-27.30394
31.46	0.9916385	-27.668799
31.75	0.98703643	-28.037075
32.04	0.99019963	-28.333499
32.33	0.99338916	-28.628027
32.62	0.99660477	-28.920663
32.91	0.99984621	-29.211409
33.2	1.0031132	-29.500268
33.49	1.001258	-29.734701
33.78	0.99941956	-29.970001
34.07	0.99759805	-30.206165
34.36	0.99579355	-30.443188
34.65	0.99400616	-30.681067
34.94	0.99523795	-31.145526
35.23	0.99653498	-31.608806
35.52	0.99789698	-32.070851
35.81	0.9993237	-32.531607
36.1	1.0008149	-32.99102
36.39	0.99991071	-32.892508
36.68	0.99900953	-32.793817
36.97	0.9981113	-32.694949
37.26	0.99721606	-32.595903
37.55	0.9963238	-32.496679
37.84	0.99640497	-33.014863
38.13	0.99656763	-33.532919
38.42	0.99681172	-34.050764
38.71	0.9971372	-34.568313
39	0.99754398	-35.085482
39.29	1.0005887	-35.236157
39.58	1.0036402	-35.385916
39.87	1.0066986	-35.534766
40.16	1.0097637	-35.682714
40.45	1.0128356	-35.829765
40.74	1.0067814	-36.320214
41.03	1.0008019	-36.816559
41.32	0.99489836	-37.318834
41.61	0.98907222	-37.827064
41.9	0.98332481	-38.341277
42.19	0.98725052	-38.585148
42.48	0.99119397	-38.827083
42.77	0.99515495	-39.067096
43.06	0.99913326	-39.305201
43.35	1.0031287	-39.541414
43.64	1.0002648	-39.877554
43.93	0.99743548	-40.215613
44.22	0.99464111	-40.555583
44.51	0.99188195	-40.897457
44.8	0.98915831	-41.241225
45.09	0.99181924	-41.667894
45.38	0.99453487	-42.092256
45.67	0.99730477	-42.514283
45.96	1.0001285	-42.93395
46.25	1.0030055	-43.351232
46.54	1.0013796	-43.435353
46.83	0.99975575	-43.519746
47.12	0.99813413	-43.604414
47.41	0.99651469	-43.689358
47.7	0.99489745	-43.774578
47.99	0.99532747	-44.289976
48.28	0.99583795	-44.804888
48.57	0.99642878	-45.319231
48.86	0.99709981	-45.832922
49.15	0.99785087	-46.345882
49.44	1.001352	-46.337428
49.73	1.0048532	-46.329034
50.02	1.0083545	-46.320698
50.31	1.0118557	-46.312419
50.6	1.015357	-46.304198
50.89	1.0091451	-46.820382
51.18	1.0030162	-47.342917
51.47	0.99697177	-47.871832
51.76	0.9910133	-48.407154
52.05	0.98514238	-48.948904
52.34	0.98979739	-49.400022
52.63	0.99451318	-49.846889
52.92	0.99928889	-50.289512
53.21	1.0041237	-50.727898
53.5	1.0090167	-51.162058
53.79	1.0035622	-51.371285
54.08	0.99812125	-51.582796
54.37	0.99269406	-51.796623
54.66	0.98728085	-52.012797
54.95	0.98188185	-52.231352
55.24	0.98461058	-53.036538
55.53	0.98753266	-53.837117
55.82	0.99064638	-54.632818
56.11	0.99394995	-55.423381
56.4	0.99744147	-56.208558
56.69	0.99595483	-56.157066
56.98	0.994469	-56.105421
57.27	0.99298397	-56.053621
57.56	0.99149976	-56.001666
57.85	0.99001637	-55.949555
58.14	0.99064299	-56.644623
58.43	0.99141521	-57.338711
58.72	0.99233268	-58.031617
59.01	0.993395	-58.723142
59.3	0.99460171	-59.413089
59.59	0.99836457	-59.533768
59.88	1.0021318	-59.653541
60.17	1.0059034	-59.772416
60.46	1.0096793	-59.890402
60.75	1.0134595	-60.007508
61.04	1.0081816	-60.629915
61.33	1.003024	-61.258798
61.62	0.99798851	-61.894105
61.91	0.99307692	-62.535775
62.2	0.98829112	-63.183742
62.49	0.99389676	-63.631511
62.78	0.99956243	-64.07423
63.07	1.0052871	-64.511933
63.36	1.0110698	-64.944655
63.65	1.0169095	-65.372431
63.94	1.0087165	-65.734716
64.23	1.0005645	-66.102919
64.52	0.99245455	-66.477156
64.81	0.98438762	-66.857543
65.1	0.97636478	-67.244198
65.39	0.98011151	-68.144503
65.68	0.98409836	-69.037733
65.97	0.98832242	-69.923541
66.26	0.99278066	-70.801601
66.55	0.99746995	-71.671609
66.84	0.99359817	-71.773816
67.13	0.98972958	-71.876823
67.42	0.98586422	-71.980638
67.71	0.98200211	-72.08527
68	0.97814331	-72.190728
68.29	0.97724844	-73.027897
68.58	0.97656256	-73.866422
68.87	0.97608612	-74.705945
69.16	0.97581941	-75.546108
69.45	0.97576261	-76.386549
69.74	0.97977604	-76.62219
70.03	0.98380591	-76.855904
70.32	0.98785201	-77.087708
70.61	0.99191415	-77.317617
70.9	0.99599212	-77.545647
71.19	0.98923286	-78.282789
71.48	0.98263957	-79.029949
71.77	0.97621562	-79.787073
72.06	0.96996437	-80.554091
72.35	0.96388919	-81.330918
72.64	0.96784627	-81.821458
72.93	0.97187372	-82.307967
73.22	0.97597066	-82.790426
73.51	0.98013621	-83.268818
73.8	0.98436952	-83.743128
74.09	0.97790388	-84.196935
74.38	0.9715004	-84.656754
74.67	0.96516032	-85.122644
74.96	0.95888489	-85.594664
75.25	0.9526754	-86.072869
75.54	0.95526522	-87.160708
75.83	0.95819747	-88.242277
76.12	0.96146901	-89.316867
76.41	0.96507638	-90.383795
76.7	0.96901584	-91.442414
76.99	0.96609919	-91.685749
77.28	0.96320006	-91.930552
77.57	0.96031863	-92.17683
77.86	0.95745504	-92.424585
78.15	0.95460947	-92.673822
78.44	0.95313866	-93.798921
78.73	0.95203644	-94.927061
79.02	0.95130408	-96.057377
79.31	0.95094244	-97.188994
79.6	0.95095194	-98.32103
79.89	0.95463624	-98.851675
80.18	0.95840178	-99.378196
80.47	0.96224763	-99.900552
80.76	0.96617281	-100.41871
81.05	0.97017637	-100.93263
81.34	0.96335834	-102.0085
81.63	0.95688476	-103.09932
81.92	0.95076265	-104.20459
82.21	0.94499886	-105.32376
82.5	0.93959998	-106.45623
82.79	0.94398977	-107.51126
83.08	0.94869662	-108.55616
83.37	0.95371581	-109.59041
83.66	0.95904246	-110.6135
83.95	0.96467146	-111.62497
84.24	0.95567699	-112.79366
84.53	0.94708759	-113.98405
84.82	0.93891438	-115.1957
85.11	0.93116831	-116.42806
85.4	0.92386014	-117.6805
85.69	0.9223859	-119.3119
85.98	0.92166149	-120.94718
86.27	0.92168869	-122.5837
86.56	0.92246743	-124.21879
86.85	0.9239958	-125.8498
87.14	0.91621684	-127.00234
87.43	0.90881487	-128.17414
87.72	0.90179918	-129.36467
88.01	0.89517885	-130.57334
88.3	0.88896272	-131.79946
88.59	0.8791675	-133.84893
88.88	0.87052164	-135.94182
89.17	0.86305967	-138.0738
89.46	0.85681252	-140.23991
89.75	0.85180692	-142.43465
90.04	0.84259513	-144.18176
90.33	0.83418368	-145.96581
90.62	0.82659699	-147.78439
90.91	0.81985798	-149.63476
91.2	0.81398768	-151.5138
91.49	0.79244589	-153.96083
91.78	0.77242859	-156.5396
92.07	0.75405719	-159.24976
92.36	0.73745473	-162.08854
92.65	0.72274311	-165.05043
92.94	0.69856284	-167.17245
93.23	0.67540859	-169.44327
93.52	0.65338945	-171.87117
93.81	0.63262397	-174.46338
94.1	0.61323949	-177.22544
94.39	0.57995046	-179.00557
94.68	0.54728901	178.99971
94.97	0.51537449	176.75493
95.26	0.48435456	174.21829
95.55	0.45441246	171.34108
95.84	0.42643058	170.62726
96.13	0.39852418	169.81333
96.42	0.3707103	168.87704
96.71	0.34301145	167.78922
97	0.31545793	166.51083
97.29	0.29783507	168.10624
97.58	0.28047206	169.90072
97.87	0.26342026	171.92973
98.16	0.24674421	174.23623
98.45	0.23052548	176.87208
98.74	0.23007615	178.32352
99.03	0.22977499	179.77971
99.32	0.22962258	-178.76123
99.61	0.22961922	-177.30118
99.9	0.22976491	-175.84203
100.19	0.22595568	-176.6189
100.48	0.22218941	-177.42226
100.77	0.21846833	-178.25315
101.06	0.21479477	-179.11265
101.35	0.21117122	179.99815
101.64	0.21349968	179.66445
101.93	0.21583523	179.33796
102.22	0.21817764	179.01847
102.51	0.22052668	178.70577
102.8	0.22288216	178.39968
103.09	0.22564213	175.74028
103.38	0.2288759	173.15057
103.67	0.23256369	170.63799
103.96	0.23668429	168.20836
104.25	0.24121552	165.86591
104.54	0.2402295	162.42441
104.83	0.24011549	158.96713
105.12	0.24087472	155.51911
105.41	0.242499	152.10503
105.7	0.24497111	148.7481
105.99	0.24276078	144.78207
106.28	0.24173164	140.7628
106.57	0.24189875	136.72918
106.86	0.24325965	132.72094
107.15	0.24579452	128.77633
107.44	0.24502954	124.29786
107.73	0.2457656	119.81885
108.02	0.24798934	115.39341
108.31	0.25166131	111.07185
108.6	0.25671939	106.89751
108.89	0.25660969	102.49553
109.18	0.25801078	98.115618
109.47	0.26089833	93.807843
109.76	0.26522379	89.617434
110.05	0.27091829	85.58227
110.34	0.2727717	81.310374
110.63	0.27611623	77.119041
110.92	0.28089864	73.04918
111.21	0.28704705	69.134546
111.5	0.29447593	65.400665
111.79	0.29825255	61.603752
112.08	0.30330305	57.917497
112.37	0.30956508	54.366126
112.66	0.31696684	50.968031
112.95	0.32543059	47.735782
113.24	0.33017118	44.533179
113.53	0.33591238	41.430609
113.82	0.3426039	38.440733
114.11	0.35019126	35.572871
114.4	0.35861761	32.83317
114.69	0.36339116	29.880264
114.98	0.3691035	27.011317
115.27	0.37571181	24.236527
115.56	0.38316974	21.563675
115.85	0.39142872	18.998218
116.14	0.39643014	16.486136
116.43	0.40217383	14.041212
116.72	0.40862848	11.669316
117.01	0.41576098	9.3749757
117.3	0.4235371	7.1614381
117.59	0.42767637	4.6146058
117.88	0.43264354	2.1214145
118.17	0.43841046	-0.31069607
118.46	0.44494605	-2.6755214
118.75	0.45221697	-4.9681077
119.04	0.45529852	-7.2136332
119.33	0.4590694	-9.4256234
119.62	0.46351279	-11.598394
119.91	0.46860954	-13.726911
120.2	0.47433862	-15.806826
120.49	0.4753	-18.128936
120.78	0.47703821	-20.437898
121.07	0.47954478	-22.726411
121.36	0.48280775	-24.987562
121.65	0.48681192	-27.214942
121.94	0.48638692	-29.447363
122.23	0.48670096	-31.680293
122.52	0.48775261	-33.906968
122.81	0.4895371	-36.120736
123.1	0.49204647	-38.315177
123.39	0.48866552	-40.387897
123.68	0.48593248	-42.486708
123.97	0.48385835	-44.60638
124.26	0.48245161	-46.741352
124.55	0.48171811	-48.885815
124.84	0.47611763	-50.971856
125.13	0.47116279	-53.10465
125.42	0.46687414	-55.279692
125.71	0.46327018	-57.491807
126	0.46036699	-59.735206
126.29	0.45162597	-61.620389
126.58	0.44339283	-63.577769
126.87	0.43569637	-65.606742
127.16	0.4285655	-67.705944
127.45	0.4220289	-69.87316
127.74	0.41085153	-71.613919
128.03	0.40007439	-73.450237
128.32	0.38973068	-75.386107
128.61	0.3798558	-77.42506
128.9	0.37048724	-79.569967
129.19	0.35774179	-80.961239
129.48	0.34522277	-82.454351
129.77	0.33295574	-84.058642
130.06	0.32096957	-85.784192
130.35	0.30929692	-87.641778
130.64	0.29453345	-88.599262
130.93	0.2798609	-89.657467
131.22	0.26529435	-90.832316
131.51	0.25085227	-92.143047
131.8	0.23655745	-93.613039
132.09	0.22330013	-93.461647
132.38	0.21004456	-93.291145
132.67	0.1967911	-93.097675
132.96	0.18354021	-92.876267
133.25	0.17029249	-92.620406
133.54	0.15895095	-90.628722
133.83	0.14783081	-88.334267
134.12	0.13698599	-85.671662
134.41	0.12648733	-82.559358
134.7	0.11642852	-78.89683
134.99	0.11279533	-73.154293
135.28	0.11036301	-67.094997
135.57	0.10921182	-60.836099
135.86	0.10938222	-54.520852
136.15	0.11086812	-48.300326
136.44	0.11699188	-44.182837
136.73	0.12365829	-40.49185
137.02	0.13078441	-37.190572
137.31	0.13829919	-34.239108
137.6	0.14614269	-31.598049
137.89	0.15607722	-30.682536
138.18	0.16604683	-29.876774
138.47	0.17604556	-29.162412
138.76	0.18606871	-28.524923
139.05	0.19611254	-27.952666
139.34	0.20580315	-28.716164
139.63	0.21552702	-29.410884
139.92	0.22527984	-30.045539
140.21	0.235058	-30.627458
140.5	0.24485847	-31.162847
140.79	0.25317936	-32.482371
141.08	0.26162596	-33.717313
141.37	0.27018646	-34.874511
141.66	0.27885038	-35.96022
141.95	0.28760838	-36.980155
142.24	0.29382214	-38.802947
142.53	0.3003208	-40.548556
142.82	0.30708627	-42.218745
143.11	0.31410132	-43.815639
143.4	0.32134961	-45.341636
143.69	0.32494412	-46.714386
143.98	0.32872101	-48.056347
144.27	0.33267408	-49.367121
144.56	0.33679712	-50.646458
144.85	0.34108397	-51.894246
145.14	0.34406104	-53.953963
145.43	0.3474748	-55.975781
145.72	0.35131251	-57.95585
146.01	0.35556045	-59.890873
146.3	0.3602041	-61.778114
146.59	0.3597004	-63.790283
146.88	0.35964126	-65.805604
147.17	0.36002689	-67.819096
147.46	0.36085587	-69.825808
147.75	0.36212516	-71.820887
148.04	0.36041603	-73.764283
148.33	0.35912521	-75.723919
148.62	0.35825723	-77.695369
148.91	0.35781516	-79.674039
149.2	0.35780059	-81.655235
149.49	0.35264663	-83.941476
149.78	0.34807026	-86.291665
150.07	0.34409451	-88.700299
150.36	0.34074042	-91.160778
150.65	0.33802649	-93.665454
150.94	0.33296023	-95.983291
151.23	0.32845515	-98.368709
151.52	0.32453462	-100.81609
151.81	0.32122004	-103.31864
152.1	0.31853032	-105.86839
152.39	0.3108424	-108.44243
152.68	0.30381285	-111.14126
152.97	0.29748834	-113.96133
153.26	0.2919147	-116.89644
153.55	0.28713566	-119.93747
153.84	0.27856916	-122.99346
154.13	0.27084393	-126.23346
154.42	0.2640338	-129.65204
154.71	0.25821121	-133.23807
155	0.25344423	-136.97415
155.29	0.24473138	-140.44295
155.58	0.23697953	-144.15308
155.87	0.23028574	-148.0963
156.16	0.22474459	-152.25456
156.45	0.220443	-156.59882
156.74	0.2109674	-161.20306
157.03	0.20297601	-166.20447
157.32	0.19664985	-171.57106
157.61	0.19215346	-177.24087
157.9	0.18961705	176.8783
158.19	0.18222381	171.33095
158.48	0.17667207	165.37572
158.77	0.17313905	159.10679
159.06	0.17174938	152.65743
159.35	0.17255487	146.18615
159.64	0.1686505	139.73378
159.93	0.16696899	133.06459
160.22	0.16757728	126.35248
160.51	0.17045086	119.7781
160.8	0.17547846	113.50096
161.09	0.17588757	107.40636
161.38	0.17826471	101.40737
161.67	0.18253301	95.627546
161.96	0.1885641	90.164401
162.25	0.19619547	85.082731
162.54	0.19765785	80.118757
162.83	0.20057584	75.263454
163.12	0.20488725	70.579859
163.41	0.2105065	66.117672
163.7	0.21733215	61.911473
163.99	0.22043865	58.0387
164.28	0.22452179	54.29012
164.57	0.22952944	50.690207
164.86	0.23540262	47.256894
165.15	0.24207834	44.001755
165.44	0.24332426	41.170099
165.73	0.24515761	38.374039
166.02	0.24756536	35.625915
166.31	0.25053093	32.936777
166.6	0.2540348	30.31617
166.89	0.25528196	27.850026
167.18	0.25699697	25.412325
167.47	0.25917054	23.01122
167.76	0.26179125	20.654113
168.05	0.26484583	18.347543
168.34	0.2639226	16.380047
168.63	0.26331256	14.401091
168.92	0.26301789	12.415325
169.21	0.26303963	10.427497
169.5	0.26337771	8.442386
169.79	0.26057435	6.6680247
170.08	0.25802618	4.8568506
170.37	0.25574083	3.0114335
170.66	0.2537254	1.1347244
170.95	0.25198637	-0.76995679
171.24	0.24824598	-1.7332147
171.53	0.24457789	-2.7256534
171.82	0.24098541	-3.7479961
172.11	0.23747195	-4.800934
172.4	0.23404109	-5.8851178
172.69	0.22866116	-6.2099501
172.98	0.22328893	-6.5504245
173.27	0.21792497	-6.9076727
173.56	0.21256991	-7.2829357
173.85	0.20722445	-7.6775766
174.14	0.20296564	-7.1805049
174.43	0.19872276	-6.6621672
174.72	0.19449686	-6.1212594
175.01	0.19028906	-5.5563775
175.3	0.18610059	-4.966009
175.59	0.18388491	-3.6648687
175.88	0.18176634	-2.332697
176.17	0.17974832	-0.96986192
176.46	0.17783426	0.42311251
176.75	0.17602757	1.8455366
177.04	0.17675458	3.0616383
177.33	0.17756055	4.2672393
177.62	0.1784444	5.4614219
177.91	0.17940498	6.6433256
178.2	0.18044107	7.8121491
178.49	0.18114747	9.8305733
178.78	0.18207677	11.830857
179.07	0.18322558	13.808446
179.36	0.18458981	15.7591
179.65	0.18616471	17.678946
179.94	0.19256624	18.929457
180.23	0.19905358	20.098983
180.52	0.2056186	21.194261
180.81	0.2122541	22.221414
181.1	0.21895367	23.186003
181.39	0.22664955	23.397508
181.68	0.23434832	23.595118
181.97	0.2420497	23.780156
182.26	0.24975346	23.95378
182.55	0.25745936	24.117012
182.84	0.26354526	24.032511
183.13	0.26963171	23.951824
183.42	0.27571866	23.8747
183.71	0.2818061	23.800907
184	0.28789398	23.730236
184.29	0.29440947	23.417665
184.58	0.30093334	23.118638
184.87	0.30746506	22.832309
185.16	0.31400413	22.557898
185.45	0.32055012	22.294689
185.74	0.32689998	22.323513
186.03	0.33324992	22.351239
186.32	0.33959993	22.377928
186.61	0.34595002	22.403637
186.9	0.35230017	22.428419
187.19	0.36042364	22.080052
187.48	0.36855985	21.747055
187.77	0.37670797	21.428452
188.06	0.38486724	21.123349
188.35	0.39303698	20.830922
188.64	0.40382055	20.293836
188.93	0.41463777	19.784731
189.22	0.42548605	19.301549
189.51	0.43636309	18.842424
189.8	0.44726679	18.405658
190.09	0.45662713	17.45692
190.38	0.46610762	16.546535
190.67	0.47570109	15.672656
190.96	0.48540082	14.833514
191.25	0.49520058	14.027417
191.54	0.50403986	12.775058
191.83	0.51311159	11.566422
192.12	0.52240365	10.400278
192.41	0.53190451	9.2753409
192.7	0.54160317	8.1902872
192.99	0.54688349	7.1582303
193.28	0.55233782	6.1462335
193.57	0.55796107	5.1543306
193.86	0.56374818	4.182506
194.15	0.56969415	3.2306983
194.44	0.57388982	1.9898356
194.73	0.57835068	0.76754851
195.02	0.58307065	-0.43549002
195.31	0.58804349	-1.6186958
195.6	0.59326283	-2.7815715
195.89	0.59445625	-3.7928504
196.18	0.59583409	-4.7997647
196.47	0.59739506	-5.8017251
196.76	0.59913774	-6.7981602
197.05	0.60106054	-7.788518
197.34	0.60010885	-8.8923089
197.63	0.59938054	-9.9991941
197.92	0.59887643	-11.108357
198.21	0.59859707	-12.218973
198.5	0.59854279	-13.330207
198.79	0.59637322	-14.146694
199.08	0.59432562	-14.968974
199.37	0.59240127	-15.796768
199.66	0.59060137	-16.629783
199.95	0.58892705	-17.467712
200.24	0.58470578	-18.08709
200.53	0.58055383	-18.715402
200.82	0.5764727	-19.352687
201.11	0.57246389	-19.998979
201.4	0.56852895	-20.654301
201.69	0.5652461	-21.107178
201.98	0.56199898	-21.565317
202.27	0.55878821	-22.02875
202.56	0.55561442	-22.497509
202.85	0.55247824	-22.971622
203.14	0.54726817	-23.218539
203.43	0.54206845	-23.470197
203.72	0.5368794	-23.726724
204.01	0.53170131	-23.988254
204.3	0.52653452	-24.254922
204.59	0.52400691	-24.171241
204.88	0.52148043	-24.086749
205.17	0.5189551	-24.001434
205.46	0.51643092	-23.915285
205.75	0.51390793	-23.82829
206.04	0.51255925	-23.571524
206.33	0.51122091	-23.313409
206.62	0.50989301	-23.053944
206.91	0.50857562	-22.793129
207.2	0.50726882	-22.530965
207.49	0.50792073	-22.237338
207.78	0.50858595	-21.94447
208.07	0.50926442	-21.652375
208.36	0.50995609	-21.361066
208.65	0.51066091	-21.070552
208.94	0.51430582	-20.768058
209.23	0.51796486	-20.469829
209.52	0.52163774	-20.175792
209.81	0.52532416	-19.885875
210.1	0.52902385	-19.600005
210.39	0.53357958	-19.456934
210.68	0.53813859	-19.316286
210.97	0.54270078	-19.178002
211.26	0.54726608	-19.042025
211.55	0.55183442	-18.908298
211.84	0.55871446	-19.067221
212.13	0.56559869	-19.222276
212.42	0.57248696	-19.373602
212.71	0.57937914	-19.521328
213	0.58627507	-19.665579
213.29	0.59251859	-19.826177
213.58	0.59876667	-19.983425
213.87	0.60501916	-20.137424
214.16	0.61127594	-20.288271
214.45	0.61753687	-20.43606
214.74	0.62445025	-20.801673
215.03	0.63138851	-21.159265
215.32	0.63835082	-21.50907
215.61	0.64533642	-21.851315
215.9	0.65234454	-22.186217
216.19	0.65784555	-22.64005
216.48	0.66338715	-23.086328
216.77	0.66896833	-23.525185
217.06	0.67458811	-23.956756
217.35	0.68024553	-24.381172
