#  HZ   S   RI   R     50.0 
! Rohde & Schwarz ZVL3 2Ports - Version 3.31 - 1303.6509k03 SN: 101102
! Date: 2016-11-08 16:46:45
! Data & Calibration Information:
! Trc1:S11(TOSM) Trc2:S21(TOSM) Trc3:S12(TOSM) Trc4:S22(TOSM)
! 
! 
! 
 1.000000000000000E7     9.878337023399696E-1  -1.305401669628314E-1  -3.316799226622689E-3   6.916115652919579E-3  -3.351553474174803E-3   6.938248292609537E-3   9.870063835561076E-1  -1.420819055503084E-1  
 1.145000000000000E7     9.780763318688562E-1  -1.625493189997783E-1  -4.220139408840487E-3   1.004124385553622E-2  -4.137493581063795E-3   1.004450932325366E-2   9.794115012068102E-1  -1.542677893186591E-1  
 1.290000000000000E7     9.782836058726996E-1  -1.780023377929185E-1  -3.072326317283038E-3   1.332170952950739E-2  -3.050045977946337E-3   1.337148400672999E-2   9.796138978463009E-1  -1.845879509344075E-1  
 1.435000000000000E7     9.726452940485157E-1  -1.987040814830149E-1  -1.351335053928778E-3   1.475963056514772E-2  -1.358176616110679E-3   1.475698590688735E-2   9.703877654150995E-1  -1.982342976000747E-1  
 1.580000000000000E7     9.727117867211621E-1  -2.217596553732594E-1  -3.052278925521992E-4   1.619296256093093E-2  -2.787354781104039E-4   1.609199291678590E-2   9.740501716590428E-1  -2.194959784947304E-1  
 1.725000000000000E7     9.646479358052811E-1  -2.402312930601359E-1   5.045589023465484E-4   1.688714415810770E-2   3.311217562785157E-4   1.702539505969720E-2   9.674558193669440E-1  -2.345605316907333E-1  
 1.870000000000000E7     9.623562136458655E-1  -2.528307989981284E-1   8.639028870015381E-4   1.823720902564539E-2   9.190761441152121E-4   1.815620100020878E-2   9.612745110197629E-1  -2.511784609288538E-1  
 2.015000000000000E7     9.645198364048564E-1  -2.795096545822225E-1   1.299591651899823E-3   1.929825230606779E-2   1.377073298845769E-3   1.940185199435456E-2   9.674757829774834E-1  -2.716388905323203E-1  
 2.160000000000000E7     9.413617327621600E-1  -3.011103155743171E-1   1.984993018660082E-3   2.038261803810037E-2   1.975906714946709E-3   2.031013797435961E-2   9.439472283750547E-1  -2.920565321932761E-1  
 2.305000000000000E7     9.417033117471960E-1  -3.279790241335484E-1   2.868615446431922E-3   2.140384370263708E-2   2.613331173043318E-3   2.151628920351469E-2   9.428871678270776E-1  -3.282223001023652E-1  
 2.450000000000000E7     9.290085125107571E-1  -3.458000324066733E-1   2.434008498156175E-3   2.240333931481865E-2   2.569166912321498E-3   2.238647519439913E-2   9.315062294804071E-1  -3.321603345474157E-1  
 2.595000000000000E7     9.210036758919389E-1  -3.716192922686689E-1   3.608320544027164E-3   2.379364359842372E-2   3.304166657413195E-3   2.373195821378181E-2   9.198807485221755E-1  -3.780628040291656E-1  
 2.740000000000000E7     9.220266830907951E-1  -3.682539835901725E-1   2.838630684692628E-3   2.484515864995711E-2   2.993722502147935E-3   2.499473982185162E-2   9.209850104061781E-1  -3.715881455819112E-1  
 2.885000000000000E7     9.089329878943814E-1  -3.944193677503969E-1   3.131767289175843E-3   2.637728710695845E-2   3.191056852902557E-3   2.616604146963946E-2   9.009536568654742E-1  -4.006944746632232E-1  
 3.030000000000000E7     9.098093610391188E-1  -4.149692724705273E-1   2.629548215609302E-3   2.821138302222775E-2   2.620990115786107E-3   2.847197001200854E-2   9.082427941694753E-1  -4.215232194973528E-1  
 3.175000000000000E7     8.744567199070885E-1  -4.319635713082106E-1   2.844443698364900E-3   2.987607790772549E-2   2.940365202042316E-3   2.982375377102783E-2   8.737309169782184E-1  -4.362353321649571E-1  
 3.320000000000000E7     8.807523633469817E-1  -4.555722534476349E-1   2.960871383789203E-3   3.287631771282978E-2   3.039746218851767E-3   3.300449278094831E-2   8.713742731407914E-1  -4.664682787803428E-1  
 3.465000000000000E7     8.566217584956589E-1  -4.720641783696177E-1   2.475722666347608E-3   3.565807645016918E-2   2.685181738681046E-3   3.588354577626065E-2   8.582713413532170E-1  -4.707949080646898E-1  
 3.610000000000000E7     8.394004299539143E-1  -5.068266176384223E-1   4.523407158078013E-3   3.972102209647879E-2   4.337089652916053E-3   4.000623491288802E-2   8.483388532409159E-1  -5.033486897650161E-1  
 3.755000000000000E7     8.418429175356923E-1  -4.895342444020579E-1   5.170916186164511E-3   4.303561335868435E-2   4.636077266223918E-3   4.375913260196214E-2   8.486080702726119E-1  -4.942223905553591E-1  
 3.900000000000000E7     8.273417648307002E-1  -5.273082379890960E-1   1.039969445250511E-2   4.678640538489178E-2   1.042804531659831E-2   4.657121640229096E-2   8.260572577128665E-1  -5.261065594502667E-1  
 4.045000000000000E7     8.296246078713492E-1  -5.421807073403822E-1   9.270319708003802E-3   4.918494913061507E-2   9.773523411775859E-3   4.963752000311654E-2   8.317520061714822E-1  -5.447820613019911E-1  
 4.190000000000000E7     7.860427562285683E-1  -5.563382713951438E-1   1.356654720002047E-2   5.145573926786849E-2   1.369282903532353E-2   5.137738343372031E-2   7.837182589970991E-1  -5.608283803977424E-1  
 4.335000000000000E7     8.013026576827537E-1  -5.799655547071871E-1   1.791017516470698E-2   5.468285569999778E-2   1.894226854605352E-2   5.442283829782827E-2   7.827044786696632E-1  -5.881840107786146E-1  
 4.480000000000000E7     7.702733344953708E-1  -5.887255508110163E-1   2.073216158549825E-2   5.504760933223914E-2   2.192362195075953E-2   5.484742485015964E-2   7.599593768200095E-1  -6.055463952396130E-1  
 4.625000000000000E7     7.546938744959538E-1  -6.320909230393610E-1   2.622555624136462E-2   5.676720858747062E-2   2.650246553095711E-2   5.674248218423719E-2   7.567235857243788E-1  -6.314634448239728E-1  
 4.770000000000000E7     7.415487774777052E-1  -6.308896513263331E-1   2.795107706373249E-2   5.676596489034227E-2   2.772356697965103E-2   5.785889254564665E-2   7.508916228469925E-1  -6.310710908704275E-1  
 4.915000000000000E7     7.144801749519788E-1  -6.728321248404470E-1   3.261843137654980E-2   5.752548039158111E-2   3.226692908882398E-2   5.748780890668319E-2   7.280445735264876E-1  -6.560850420055056E-1  
 5.060000000000000E7     7.373486108468794E-1  -6.678245305048136E-1   3.323801326494078E-2   6.000639349688487E-2   3.460007398080746E-2   6.009570275527703E-2   7.333664315164953E-1  -6.803156014336301E-1  
 5.205000000000000E7     6.901838696962315E-1  -6.767509262635698E-1   3.695262816901333E-2   5.835201459023155E-2   3.660255259061785E-2   5.863711325229911E-2   6.773200031618391E-1  -6.920993907953267E-1  
 5.350000000000000E7     6.766624332620540E-1  -7.271854384021350E-1   4.062903764422388E-2   6.024015375352610E-2   4.123407621576185E-2   6.019574179384277E-2   6.707492558876299E-1  -7.242709310109867E-1  
 5.495000000000000E7     6.412703859739911E-1  -7.153684327103724E-1   4.146847001847630E-2   6.024427953805926E-2   4.231142030483362E-2   6.032781164914115E-2   6.452648808747059E-1  -7.163955790583072E-1  
 5.640000000000000E7     6.037286122816920E-1  -7.665544329900569E-1   4.745400528034268E-2   6.124525414882697E-2   4.835726234917883E-2   6.071472925943040E-2   6.015796779276370E-1  -7.693680656781466E-1  
 5.785000000000000E7     6.071354075827662E-1  -7.508386014262635E-1   4.823260104347890E-2   6.319395683388485E-2   4.927903224755754E-2   6.308059794606612E-2   5.990413090136770E-1  -7.634329086687182E-1  
 5.930000000000000E7     5.668240317124818E-1  -7.914235293176753E-1   5.339859865264126E-2   6.388758077071374E-2   5.455477656191542E-2   6.247046919714056E-2   5.533250959297698E-1  -7.946406852709329E-1  
 6.075000000000000E7     5.655531316565819E-1  -8.081888804133116E-1   5.542625873987679E-2   6.767929611687226E-2   5.705603815759127E-2   6.673759700767790E-2   5.601585828207830E-1  -8.128902800609238E-1  
 6.220000000000000E7     5.086480800562665E-1  -8.135119924219738E-1   6.013086849045162E-2   6.652282507627537E-2   5.938287235833586E-2   6.686906809520049E-2   5.025627823111697E-1  -8.171124363953347E-1  
 6.365000000000000E7     4.923785879112844E-1  -8.516645045680600E-1   6.428688715971469E-2   6.964468642079126E-2   6.562837288034452E-2   6.981188926970416E-2   4.850661222106290E-1  -8.576929141432561E-1  
 6.510000000000000E7     4.471026165353170E-1  -8.293513009638562E-1   6.608894170353527E-2   7.124763573270738E-2   6.551418043019833E-2   7.112026671295943E-2   4.398247886887138E-1  -8.290134244741171E-1  
 6.655000000000000E7     3.978801660683947E-1  -8.696212345140213E-1   7.427354499074075E-2   7.696339927216944E-2   7.449185953235962E-2   7.601089508336005E-2   3.782197837711586E-1  -8.711406183328532E-1  
 6.800000000000000E7     3.735916015684032E-1  -8.466749345020164E-1   7.850994878099420E-2   8.396891921781671E-2   7.950464070514011E-2   8.434227838564960E-2   3.827520327666105E-1  -8.475550506386577E-1  
 6.945000000000000E7     3.227505671462986E-1  -8.635730732215453E-1   9.608114232845641E-2   8.711868152378602E-2   9.531380785393678E-2   8.700563887552272E-2   3.279754496236751E-1  -8.590012298432236E-1  
 7.090000000000000E7     3.346542538004834E-1  -8.738043177223029E-1   1.115077189044484E-1   9.396432838958890E-2   1.128355717365167E-1   9.418266884232150E-2   3.192838397194306E-1  -8.831578212753547E-1  
 7.235000000000000E7     2.692418072014858E-1  -8.727179634229793E-1   1.306203727374108E-1   8.540782528771192E-2   1.280995553838801E-1   8.609237482303934E-2   2.800471039628144E-1  -8.615360589565807E-1  
 7.380000000000000E7     2.672415254343077E-1  -8.999964076825749E-1   1.473613291828815E-1   8.099288906820232E-2   1.479555840906891E-1   7.988222163038854E-2   2.426405713909510E-1  -8.961402778024243E-1  
 7.525000000000000E7     2.226011438972836E-1  -8.814309276431477E-1   1.575999173235514E-1   7.036261178870766E-2   1.567892603065313E-1   7.145693744634413E-2   2.222811348663397E-1  -8.776264842370204E-1  
 7.670000000000000E7     1.553793135619339E-1  -9.160356086362210E-1   1.755601459534573E-1   5.787426413116312E-2   1.749250098580608E-1   5.602494059449824E-2   1.463212906071358E-1  -9.074827707989035E-1  
 7.815000000000000E7     1.373435559062262E-1  -9.012071810108534E-1   1.849613848971154E-1   5.209423833298698E-2   1.857859946725859E-1   5.129919530226344E-2   1.443386582649241E-1  -9.025397444499359E-1  
 7.960000000000000E7     5.328100621919113E-2  -9.083316612407101E-1   2.001636012982660E-1   3.390407481858584E-2   2.000810962046835E-1   3.382908356466065E-2   7.172133245210254E-2  -9.058172151415628E-1  
 8.105000000000000E7     3.612690650717010E-2  -9.246743536443400E-1   2.188409641490615E-1   2.650444628407590E-2   2.202321071958959E-1   2.446148107335071E-2   3.494938886079595E-2  -9.294967613089744E-1  
 8.250000000000000E7    -3.371512103889005E-2  -8.992250420558930E-1   2.327057441588440E-1   3.901210793775210E-3   2.300952170796486E-1   6.908308437151574E-3  -3.582905578394177E-2  -8.921866007910019E-1  
 8.395000000000000E7    -9.150151173257490E-2  -9.189096201190427E-1   2.562623425188402E-1  -1.430234015285734E-2   2.555881380380031E-1  -1.674022346516241E-2  -1.076683175795911E-1  -9.056808790736556E-1  
 8.540000000000000E7    -1.648896222252165E-1  -8.671559256172026E-1   2.701000336324174E-1  -4.390250655438746E-2   2.659204319129453E-1  -4.175019953119456E-2  -1.574312761626137E-1  -8.547486981442313E-1  
 8.685000000000000E7    -2.500434180037647E-1  -8.426783378209261E-1   2.887308698501194E-1  -8.773651717142889E-2   2.871580043187453E-1  -8.769964759632357E-2  -2.563669873251026E-1  -8.306567583734349E-1  
 8.830000000000000E7    -2.884816650285678E-1  -7.893038108845486E-1   3.026102674106471E-1  -1.277107813993141E-1   3.042276535015660E-1  -1.260621244818710E-1  -2.897129609772301E-1  -7.898809936238389E-1  
 8.975000000000000E7    -3.746777070275475E-1  -7.169570084626175E-1   3.012925100055452E-1  -1.986299055056922E-1   3.037167830739685E-1  -1.948187995142865E-1  -3.706968900884912E-1  -7.151270714650231E-1  
 9.120000000000000E7    -4.133215650638515E-1  -6.549793840749064E-1   2.987058811671010E-1  -2.697196631564143E-1   3.046021011255957E-1  -2.648189533400802E-1  -4.142501023670942E-1  -6.560173568225814E-1  
 9.265000000000000E7    -4.442169005329455E-1  -5.413864248474384E-1   2.515628435333542E-1  -3.519505736338878E-1   2.506911164092222E-1  -3.509389954047618E-1  -4.500903727952715E-1  -5.343933778143045E-1  
 9.410000000000000E7    -4.394632506200913E-1  -4.585371540514246E-1   1.749301295433155E-1  -4.249815578041226E-1   1.726514842802124E-1  -4.251997410294222E-1  -4.379963519766651E-1  -4.510134986296553E-1  
 9.555000000000000E7    -3.946696988745105E-1  -3.820499232037833E-1   5.349147680044264E-2  -4.515660340829448E-1   6.249357113640675E-2  -4.470743058598252E-1  -3.878114729304259E-1  -3.797650207225079E-1  
 9.700000000000000E7    -3.660356577915062E-1  -3.466978202738207E-1  -5.649661360171118E-2  -4.214179122612919E-1  -5.655953282077934E-2  -4.202445568510548E-1  -3.605319136764247E-1  -3.477962005565137E-1  
 9.845000000000000E7    -3.449428039085071E-1  -3.479641863092474E-1  -1.154869699658235E-1  -3.551567354846018E-1  -1.206516875993997E-1  -3.527584992626463E-1  -3.515599427498883E-1  -3.347936425980974E-1  
 9.990000000000000E7    -3.714991637032543E-1  -3.047325947101089E-1  -1.357055251143517E-1  -2.867134955455725E-1  -1.378670078385745E-1  -2.867455184688681E-1  -3.603936864449338E-1  -3.020453286523693E-1  
 1.013500000000000E8    -3.505923118431543E-1  -2.578217796290129E-1  -1.446845370126891E-1  -2.604608789095292E-1  -1.444449628558262E-1  -2.617175949708650E-1  -3.608796323050902E-1  -2.643430676538265E-1  
 1.028000000000000E8    -3.500713518018158E-1  -2.361840747517479E-1  -1.279699792321642E-1  -2.355592063059787E-1  -1.280986089481205E-1  -2.362033645330850E-1  -3.515876855546073E-1  -2.231295124898843E-1  
 1.042500000000000E8    -3.623283855944736E-1  -2.008425864822596E-1  -1.219318019770020E-1  -2.562465694384416E-1  -1.202579855208940E-1  -2.563859905853673E-1  -3.476877652457062E-1  -1.939841811063227E-1  
 1.057000000000000E8    -3.632460074834584E-1  -1.582337695562595E-1  -1.434763160101140E-1  -2.858891024568512E-1  -1.442048499780109E-1  -2.848810393404563E-1  -3.432841518900447E-1  -1.583535594287056E-1  
 1.071500000000000E8    -3.613007987503915E-1  -1.128107669962191E-1  -1.954504762803172E-1  -3.069365410325790E-1  -1.999845338327920E-1  -3.035666757107169E-1  -3.420074881718536E-1  -1.144512391870556E-1  
 1.086000000000000E8    -3.521815645512864E-1  -5.528862357903346E-2  -2.678571043310261E-1  -3.074556938661093E-1  -2.684352345835598E-1  -3.052141149994553E-1  -3.333472141632363E-1  -6.610950567830212E-2  
 1.100500000000000E8    -3.319022878900978E-1  -5.255944150457300E-3  -3.448969463352062E-1  -2.827892281488778E-1  -3.434972825420605E-1  -2.869540446193025E-1  -3.147555935788490E-1  -2.426055937676946E-2  
 1.115000000000000E8    -3.042817493449638E-1   4.272518116260562E-2  -4.212925522217177E-1  -2.363395286703185E-1  -4.228610290879761E-1  -2.366128645773417E-1  -2.947086962193175E-1   1.982156629855340E-2  
 1.129500000000000E8    -2.703588480715947E-1   8.541653333462065E-2  -4.856728143148187E-1  -1.707699780433377E-1  -4.891790650657321E-1  -1.664722450315766E-1  -2.667560455488542E-1   5.901187452626363E-2  
 1.144000000000000E8    -2.327936210197112E-1   1.234008243000492E-1  -5.356628951974972E-1  -8.349025131174169E-2  -5.358766846955929E-1  -8.331987046422959E-2  -2.360870155169676E-1   9.867022635003675E-2  
 1.158500000000000E8    -1.919942261322312E-1   1.560700445894100E-1  -5.677572326285814E-1   1.597317961730390E-2  -5.666762329052206E-1   1.762173620273326E-2  -2.022250562755925E-1   1.323753078133199E-1  
 1.173000000000000E8    -1.444932903699223E-1   1.799917352758940E-1  -5.725690988579274E-1   1.207096635778246E-1  -5.734285938224291E-1   1.149051190201488E-1  -1.610383749560871E-1   1.612239582049265E-1  
 1.187500000000000E8    -9.739770119400557E-2   1.991486563174912E-1  -5.581008417503177E-1   2.319631892527136E-1  -5.531561125212219E-1   2.316982256993191E-1  -1.128232153096308E-1   1.861876734931222E-1  
 1.202000000000000E8    -5.442909195060124E-2   2.086079816227684E-1  -5.180036418907656E-1   3.317201306920727E-1  -5.187726853962729E-1   3.318880378453024E-1  -6.954371345732067E-2   1.965853666457149E-1  
 1.216500000000000E8    -6.323201319180634E-3   2.121660795169942E-1  -4.475222709278336E-1   4.307525740928687E-1  -4.505293741242089E-1   4.290124078525989E-1  -2.588755568710253E-2   2.023316531754088E-1  
 1.231000000000000E8     2.852086626928145E-2   2.094088585663617E-1  -3.631917702612085E-1   5.105785533359190E-1  -3.659100782545011E-1   5.121364293516719E-1   1.450858390263469E-2   2.031814097834553E-1  
 1.245500000000000E8     6.185771568808293E-2   2.007490655298804E-1  -2.616304273345056E-1   5.618631673257191E-1  -2.640611578860548E-1   5.612304519474357E-1   4.596954754105394E-2   1.964911066159414E-1  
 1.260000000000000E8     8.807228487123313E-2   1.957346396917996E-1  -1.502375186471128E-1   5.915871827910503E-1  -1.499025754833256E-1   5.906930623701564E-1   7.583478257815118E-2   1.913026953355860E-1  
 1.274500000000000E8     1.070966549258788E-1   1.898630997237598E-1  -4.684834619452917E-2   5.849970623725230E-1  -4.092357995282520E-2   5.847733397737311E-1   9.557134266127242E-2   1.873934410435681E-1  
 1.289000000000000E8     1.309783546388497E-1   1.897240186783495E-1   5.888163297127912E-2   5.538696166628305E-1   6.084313038098827E-2   5.519048676331376E-1   1.228884882057919E-1   1.873193174410510E-1  
 1.303500000000000E8     1.514104200998154E-1   1.936108981360478E-1   1.371441535149073E-1   4.998836674278335E-1   1.383449842980507E-1   4.999558917467627E-1   1.495320768761584E-1   1.881587008311958E-1  
 1.318000000000000E8     1.811490864421188E-1   1.948748571250809E-1   1.952039874068117E-1   4.276399574266671E-1   1.940621556504845E-1   4.276783781723969E-1   1.783024719686881E-1   1.882689281483966E-1  
 1.332500000000000E8     2.126445846614697E-1   1.947852150746181E-1   2.203137339412963E-1   3.558463978468842E-1   2.205969590388089E-1   3.575932092903277E-1   2.126949809800304E-1   1.784255544253562E-1  
 1.347000000000000E8     2.420048403482508E-1   1.881297299138011E-1   2.183853392057424E-1   2.898491420153448E-1   2.149685573264401E-1   2.935455724281727E-1   2.361917927668242E-1   1.667665647329917E-1  
 1.361500000000000E8     2.771382952192298E-1   1.814154629490304E-1   1.930587137533929E-1   2.531358552123355E-1   1.941999753888720E-1   2.514706075344380E-1   2.576251232028772E-1   1.576334220115230E-1  
 1.376000000000000E8     3.028549614052711E-1   1.724782924650959E-1   1.660935388231443E-1   2.388039382734297E-1   1.654759446017997E-1   2.395326052264214E-1   2.776670666005296E-1   1.527133118023504E-1  
 1.390500000000000E8     3.401046832149988E-1   1.592754569231636E-1   1.507733605982175E-1   2.441951726559124E-1   1.517858620135848E-1   2.430713577569371E-1   3.089207302959129E-1   1.441387224836698E-1  
 1.405000000000000E8     3.746108676651553E-1   1.350271721487548E-1   1.488078597613615E-1   2.590734532291545E-1   1.503507065241432E-1   2.581625386522909E-1   3.435984851758126E-1   1.287938950438537E-1  
 1.419500000000000E8     4.048098624776793E-1   9.737430191732791E-2   1.601240317286052E-1   2.704267606947397E-1   1.605906166726557E-1   2.709530852676020E-1   3.754131976255209E-1   9.799058836831238E-2  
 1.434000000000000E8     4.238314668180577E-1   5.459889854956245E-2   1.855925912224149E-1   2.829030022448867E-1   1.857475931994249E-1   2.833694366472551E-1   3.992478534275312E-1   5.451488211691907E-2  
 1.448500000000000E8     4.367821723163824E-1   1.146270228210778E-2   2.123695325772581E-1   2.837222014654474E-1   2.097989364523255E-1   2.861233284185037E-1   4.063623012735948E-1   2.160324969224849E-2  
